Time [s],Channel 1,Channel 2
4.699826880,1,1
5.199864480,0,1
5.200114400,0,0
5.700124000,1,0
5.700425760,1,1
6.200394720,0,1
6.200665920,0,0
6.700678880,1,0
6.700928960,1,1
7.200855040,0,1
7.201115040,0,0
7.701130880,1,0
7.701391840,1,1
8.201579040,0,1
8.201883520,0,0
8.702036480,1,0
8.702331200,1,1
9.202480800,0,1
9.202788480,0,0
9.702937440,1,0
9.703240960,1,1
10.203462400,0,1
10.203762880,0,0
10.703740000,1,0
10.704043040,1,1
11.204237120,0,1
11.204557120,0,0
11.704640480,1,0
11.704941440,1,1
12.204967520,0,1
12.205277600,0,0
12.705220640,1,0
12.705481920,1,1
13.205407360,0,1
13.205668800,0,0
13.705615360,1,0
13.705873120,1,1
14.205802720,0,1
14.206030240,0,0
14.705980320,1,0
14.706149600,1,1
15.206163680,0,1
15.206331680,0,0
15.706344320,1,0
15.706516320,1,1
16.206524480,0,1
16.206704960,0,0
16.706705600,1,0
16.706875520,1,1
17.206879360,0,1
17.207056000,0,0
17.707131680,1,0
17.707360160,1,1
18.207442560,0,1
18.207668960,0,0
18.707748480,1,0
18.707968160,1,1
19.208054080,0,1
19.208252960,0,0
19.708377600,1,0
19.708687040,1,1
20.208728640,0,1
20.209026720,0,0
20.709020960,1,0
20.709322080,1,1
21.209316480,0,1
21.209637760,0,0
21.709663040,1,0
21.709979040,1,1
22.209977280,0,1
22.210296480,0,0
22.710231520,1,0
22.710488000,1,1
23.210416320,0,1
23.210671680,0,0
23.710604000,1,0
23.710861760,1,1
24.210808640,0,1
24.211008800,0,0
24.710979360,1,0
24.711220000,1,1
25.211180960,0,1
25.211429920,0,0
25.711348480,1,0
25.711600320,1,1
26.211516800,0,1
26.211798400,0,0
26.711726560,1,0
26.711987040,1,1
27.211923680,0,1
27.212195360,0,0
27.712205920,1,0
27.712538240,1,1
28.212570080,0,1
28.212888320,0,0
28.712893280,1,0
28.713206720,1,1
29.213203200,0,1
29.213421600,0,0
29.713453120,1,0
29.713752480,1,1
30.213797920,0,1
30.214103200,0,0
30.714091840,1,0
30.714392320,1,1
31.214391680,0,1
31.214752800,0,0
31.714700480,1,0
31.715018720,1,1
32.215047680,0,1
32.215363360,0,0
32.715350240,1,0
32.715666240,1,1
33.215650400,0,1
33.215978880,0,0
33.715935200,1,0
33.716235520,1,1
34.216216000,0,1
34.216533280,0,0
34.716501920,1,0
34.716717760,1,1
35.216786880,0,1
35.217003680,0,0
35.717052960,1,0
35.717266880,1,1
36.217329760,0,1
36.217580000,0,0
36.717676800,1,0
36.717920320,1,1
37.218050560,0,1
37.218285440,0,0
37.718411360,1,0
37.718658720,1,1
38.218792640,0,1
38.219023680,0,0
38.719098240,1,0
38.719316960,1,1
39.219393760,0,1
39.219631040,0,0
39.719708320,1,0
39.719997600,1,1
40.219994720,0,1
40.220294400,0,0
40.720279520,1,0
40.720609280,1,1
41.220621600,0,1
41.220946880,0,0
41.720930720,1,0
41.721247680,1,1
42.221248960,0,1
42.221563520,0,0
42.721524640,1,0
42.721811840,1,1
43.221815360,0,1
43.222131040,0,0
43.722102880,1,0
43.722392960,1,1
44.222387680,0,1
44.222709600,0,0
44.722697920,1,0
44.722943200,1,1
45.222966560,0,1
45.223259360,0,0
45.723228800,1,0
45.723531360,1,1
46.223509920,0,1
46.223837600,0,0
46.723895040,1,0
46.724193600,1,1
47.224261280,0,1
47.224591200,0,0
47.724557120,1,0
47.724817600,1,1
48.224764160,0,1
48.225020640,0,0
48.724976960,1,0
48.725229440,1,1
49.225191840,0,1
49.225447840,0,0
49.725369440,1,0
49.725545920,1,1
50.225523360,0,1
50.225762880,0,0
50.725697280,1,0
50.725943520,1,1
51.225869760,0,1
51.226141920,0,0
51.726054560,1,0
51.726303680,1,1
52.226235680,0,1
52.226495360,0,0
52.726499360,1,0
52.726805280,1,1
53.226809280,0,1
53.227126560,0,0
53.727119360,1,0
53.727407200,1,1
54.227407520,0,1
54.227723040,0,0
54.727700800,1,0
54.727995840,1,1
55.227992960,0,1
55.228246240,0,0
55.728322080,1,0
55.728616480,1,1
56.228624640,0,1
56.228935040,0,0
56.728926560,1,0
56.729222880,1,1
57.229275040,0,1
57.229593280,0,0
57.729549120,1,0
57.729803840,1,1
58.229762560,0,1
58.230009440,0,0
58.729966080,1,0
58.730220000,1,1
59.230172000,0,1
59.230432640,0,0
59.730377920,1,0
59.730542400,1,1
60.230580160,0,1
60.230728960,0,0
60.730747840,1,0
60.730910880,1,1
61.230919680,0,1
61.231094560,0,0
61.731096960,1,0
61.731262400,1,1
62.231272800,0,1
62.231448800,0,0
62.731515200,1,0
62.731864480,1,1
63.231825600,0,1
63.232054080,0,0
63.732246880,1,0
63.732470240,1,1
64.232567200,0,1
64.232790240,0,0
64.732872320,1,0
64.733160960,1,1
65.233182080,0,1
65.233420000,0,0
65.733709600,1,0
65.733994560,1,1
66.233995680,0,1
66.234306560,0,0
66.734292320,1,0
66.734594720,1,1
67.234668960,0,1
67.234977280,0,0
67.734947680,1,0
67.735193760,1,1
68.235163840,0,1
68.235424000,0,0
68.735376800,1,0
68.735604800,1,1
69.235572160,0,1
69.235828480,0,0
69.735775360,1,0
69.736026080,1,1
70.235978560,0,1
70.236162400,0,0
70.736155840,1,0
70.736398560,1,1
71.236337920,0,1
71.236598080,0,0
71.736521600,1,0
71.736758560,1,1
72.236701120,0,1
72.236948320,0,0
72.736950880,1,0
72.737245600,1,1
73.237269440,0,1
73.237569920,0,0
73.737572800,1,0
73.737865440,1,1
74.237915840,0,1
74.238214400,0,0
74.738266400,1,0
74.738557280,1,1
75.238630720,0,1
75.238942240,0,0
75.738965120,1,0
75.739253600,1,1
76.239286080,0,1
76.239604640,0,0
76.739601280,1,0
76.739886720,1,1
77.239907200,0,1
77.240219360,0,0
77.740240160,1,0
77.740535200,1,1
78.240556160,0,1
78.240857120,0,0
78.740856960,1,0
78.741133600,1,1
79.241141760,0,1
79.241441600,0,0
79.741449440,1,0
79.741667360,1,1
80.241746400,0,1
80.241963520,0,0
80.742028160,1,0
80.742224160,1,1
81.242317600,0,1
81.242550720,0,0
81.742633600,1,0
81.742848640,1,1
82.242922880,0,1
82.243149120,0,0
82.743254560,1,0
82.743483040,1,1
83.243618080,0,1
83.243845120,0,0
83.743940640,1,0
83.744179680,1,1
84.244284000,0,1
84.244506400,0,0
84.744578880,1,0
84.744794720,1,1
85.244936800,0,1
85.245147360,0,0
85.745231840,1,0
85.745408480,1,1
86.245518080,0,1
86.245744960,0,0
86.745824800,1,0
86.746040160,1,1
87.246129760,0,1
87.246355200,0,0
87.746382880,1,0
87.746552160,1,1
88.246570560,0,1
88.246738400,0,0
88.746759360,1,0
88.746919680,1,1
89.246948480,0,1
89.247118720,0,0
89.747141760,1,0
89.747386240,1,1
90.247325920,0,1
90.247559360,0,0
90.747495360,1,0
90.747667200,1,1
91.247643840,0,1
91.247907520,0,0
91.747841280,1,0
91.748086880,1,1
92.248034720,0,1
92.248283520,0,0
92.748297440,1,0
92.748610720,1,1
93.248611840,0,1
93.248904320,0,0
93.748965600,1,0
93.749257600,1,1
94.249276640,0,1
94.249568000,0,0
94.749571360,1,0
94.749867840,1,1
95.249968320,0,1
95.250270560,0,0
95.750312320,1,0
95.750616640,1,1
96.250660800,0,1
96.250989600,0,0
96.750973440,1,0
96.751264800,1,1
97.251276800,0,1
97.251588800,0,0
97.751528640,1,0
97.751794560,1,1
98.251712480,0,1
98.251960320,0,0
98.751900640,1,0
98.752154240,1,1
99.252099520,0,1
99.252352480,0,0
99.752276000,1,0
99.752442240,1,1
100.252451680,0,1
100.252623200,0,0
100.752616960,1,0
100.752783040,1,1
101.252795040,0,1
101.252950240,0,0
101.752992160,1,0
101.753160640,1,1
102.253184160,0,1
102.253355040,0,0
102.753432480,1,0
102.753665600,1,1
103.253727680,0,1
103.253956960,0,0
103.754023520,1,0
103.754222400,1,1
104.254283200,0,1
104.254502880,0,0
104.754562720,1,0
104.754857120,1,1
105.254869120,0,1
105.255178240,0,0
105.755166560,1,0
105.755464960,1,1
106.255474720,0,1
106.255736320,0,0
106.755782720,1,0
106.756132960,1,1
107.256138400,0,1
107.256449920,0,0
107.756397760,1,0
107.756664320,1,1
108.256588960,0,1
108.257007840,0,0
108.756776000,1,0
108.757025920,1,1
109.256952800,0,1
109.257213280,0,0
109.757139360,1,0
109.757383840,1,1
110.257319040,0,1
110.257572480,0,0
110.757493600,1,0
110.757690560,1,1
111.257671840,0,1
111.257868000,0,0
111.757841440,1,0
111.758132480,1,1
112.258020160,0,1
112.258273280,0,0
112.758269280,1,0
112.758650560,1,1
113.258584800,0,1
113.258816800,0,0
113.758869760,1,0
113.759153120,1,1
114.259171680,0,1
114.259487040,0,0
114.759500480,1,0
114.759716000,1,1
115.259835040,0,1
115.260059840,0,0
115.760135040,1,0
115.760343680,1,1
116.260506080,0,1
116.260661600,0,0
116.760828640,1,0
116.761044480,1,1
117.261164320,0,1
117.261393280,0,0
117.761498720,1,0
117.761722560,1,1
118.261810560,0,1
118.262052000,0,0
118.762111200,1,0
118.762307040,1,1
119.262396320,0,1
119.262628160,0,0
119.762704800,1,0
119.762992160,1,1
120.263008800,0,1
120.263318400,0,0
120.763298240,1,0
120.763584160,1,1
121.263600640,0,1
121.263920640,0,0
121.763910560,1,0
121.764194240,1,1
122.264199360,0,1
122.264508480,0,0
122.764499360,1,0
122.764794560,1,1
123.264790880,0,1
123.265106720,0,0
123.765092320,1,0
123.765381920,1,1
124.265372320,0,1
124.265671360,0,0
124.765660320,1,0
124.765943840,1,1
125.265956800,0,1
125.266270400,0,0
125.766238080,1,0
125.766529440,1,1
126.266530880,0,1
126.266850240,0,0
126.766848000,1,0
126.767115040,1,1
127.267147520,0,1
127.267454240,0,0
127.767498720,1,0
127.767800640,1,1
128.267818880,0,1
128.268141600,0,0
128.768197600,1,0
128.768481760,1,1
129.268547680,0,1
129.268856000,0,0
129.768904160,1,0
129.769118400,1,1
130.269260960,0,1
130.269485280,0,0
130.769567680,1,0
130.769779520,1,1
131.269877600,0,1
131.270107360,0,0
131.770184160,1,0
131.770354080,1,1
132.270479840,0,1
132.270705920,0,0
132.770794880,1,0
132.771020480,1,1
133.271109920,0,1
133.271335200,0,0
133.771428000,1,0
133.771634720,1,1
134.271766240,0,1
134.271995520,0,0
134.772072320,1,0
134.772373920,1,1
135.272459680,0,1
135.272758080,0,0
135.772805920,1,0
135.773100320,1,1
136.273143840,0,1
136.273456800,0,0
136.773485600,1,0
136.773695040,1,1
137.273752960,0,1
137.274056480,0,0
137.774003680,1,0
137.774245920,1,1
138.274185120,0,1
138.274428480,0,0
138.774366400,1,0
138.774597440,1,1
139.274544000,0,1
139.274789440,0,0
139.774724000,1,0
139.774959200,1,1
140.274907520,0,1
140.275168640,0,0
140.775076000,1,0
140.775319200,1,1
141.275250560,0,1
141.275515360,0,0
141.775432800,1,0
141.775673920,1,1
142.275629440,0,1
142.275877440,0,0
142.775885120,1,0
142.776198400,1,1
143.276200960,0,1
143.276508160,0,0
143.776522400,1,0
143.776801120,1,1
144.276804480,0,1
144.277117920,0,0
144.777096960,1,0
144.777612480,1,1
145.277407200,0,1
145.277708800,0,0
145.777702720,1,0
145.777989440,1,1
146.277986720,0,1
146.278305600,0,0
146.778281920,1,0
146.778578240,1,1
147.278654080,0,1
147.278916480,0,0
147.779004000,1,0
147.779314080,1,1
148.279372160,0,1
148.279676480,0,0
148.779735680,1,0
148.780005600,1,1
149.280026240,0,1
149.280331040,0,0
149.780332000,1,0
149.780621920,1,1
150.280631520,0,1
150.280935840,0,0
150.780917280,1,0
150.781193920,1,1
151.281211680,0,1
151.281532640,0,0
151.781715360,1,0
151.782004960,1,1
152.282221600,0,1
152.282499840,0,0
152.782533600,1,0
152.782847040,1,1
153.283063840,0,1
153.283381600,0,0
153.783630400,1,0
153.783909600,1,1
154.283932800,0,1
154.284243840,0,0
154.784436640,1,0
154.784735680,1,1
155.284939840,0,1
155.285250400,0,0
155.785246240,1,0
155.785531200,1,1
156.285737920,0,1
156.286081280,0,0
156.786273920,1,0
156.786570080,1,1
157.286588000,0,1
157.286837760,0,0
157.787051840,1,0
157.787315360,1,1
158.287625600,0,1
158.287882240,0,0
158.787959840,1,0
158.788158560,1,1
159.288449120,0,1
159.288687200,0,0
159.788986400,1,0
159.789169280,1,1
160.289274720,0,1
160.289505760,0,0
160.789756960,1,0
160.789973600,1,1
161.290241280,0,1
161.290479680,0,0
161.790554720,1,0
161.790767680,1,1
162.291055680,0,1
162.291290400,0,0
162.791401920,1,0
162.791660480,1,1
163.291628960,0,1
163.291875680,0,0
163.791898240,1,0
163.792124160,1,1
164.292156640,0,1
164.292409120,0,0
164.792360320,1,0
164.792520000,1,1
165.292617600,0,1
165.292793920,0,0
165.792870720,1,0
165.793033760,1,1
166.293114560,0,1
166.293296160,0,0
166.793319680,1,0
166.793476960,1,1
167.293573440,0,1
167.293748160,0,0
167.794030400,1,0
167.794260320,1,1
168.294323680,0,1
168.294543840,0,0
168.794833760,1,0
168.795040960,1,1
169.295328160,0,1
169.295578720,0,0
169.795693600,1,0
169.795968320,1,1
170.296143520,0,1
170.296438240,0,0
170.796617600,1,0
170.796916960,1,1
171.296919200,0,1
171.297228000,0,0
171.797411040,1,0
171.797702880,1,1
172.297902880,0,1
172.298209440,0,0
172.798225280,1,0
172.798511840,1,1
173.298703520,0,1
173.299014240,0,0
173.799224800,1,0
173.799516960,1,1
174.299570080,0,1
174.299871680,0,0
174.800071840,1,0
174.800371520,1,1
175.300561440,0,1
175.300869760,0,0
175.800854080,1,0
175.801137280,1,1
176.301328000,0,1
176.301653120,0,0
176.801699520,1,0
176.801985120,1,1
177.301983360,0,1
177.302299040,0,0
177.802504320,1,0
177.802753120,1,1
178.302976800,0,1
178.303292480,0,0
178.803282560,1,0
178.803569760,1,1
179.303580000,0,1
179.303885760,0,0
179.803884320,1,0
179.804098080,1,1
180.304189760,0,1
180.304405440,0,0
180.804484160,1,0
180.804693760,1,1
181.304782560,0,1
181.305010080,0,0
181.805084960,1,0
181.805295200,1,1
182.305394560,0,1
182.308126240,0,0
182.805694720,1,0
182.805921120,1,1
183.306000640,0,1
183.306234080,0,0
183.806323360,1,0
183.806527680,1,1
184.306618560,0,1
184.306844160,0,0
184.806927200,1,0
184.807227360,1,1
185.307230880,0,1
185.307586560,0,0
185.807587360,1,0
185.807884160,1,1
186.307893280,0,1
186.308205600,0,0
186.808205280,1,0
186.808491840,1,1
187.308508800,0,1
187.308859680,0,0
187.808832320,1,0
187.809149280,1,1
188.309138400,0,1
188.309424160,0,0
188.809464160,1,0
188.809746240,1,1
189.309759200,0,1
189.310077280,0,0
189.810067040,1,0
189.810360960,1,1
190.310377440,0,1
190.310687200,0,0
190.810668480,1,0
190.810954080,1,1
191.310951200,0,1
191.311261440,0,0
191.811289760,1,0
191.811575040,1,1
192.311571360,0,1
192.311910560,0,0
192.811808800,1,0
192.812063680,1,1
193.311982240,0,1
193.312203520,0,0
193.812154560,1,0
193.812383520,1,1
194.312319360,0,1
194.312564800,0,0
194.812486080,1,0
194.812644480,1,1
195.312652160,0,1
195.312820800,0,0
195.812811360,1,0
195.812974240,1,1
196.313006080,0,1
196.313179680,0,0
196.813211680,1,0
196.813384320,1,1
197.313424640,0,1
197.313614880,0,0
197.813722080,1,0
197.813949600,1,1
198.314031200,0,1
198.314230720,0,0
198.814355040,1,0
198.814559840,1,1
199.314654720,0,1
199.314879360,0,0
199.814960800,1,0
199.815246880,1,1
200.315295200,0,1
200.315620320,0,0
200.815600320,1,0
200.815892320,1,1
201.315899840,0,1
201.316215200,0,0
201.816216800,1,0
201.816509280,1,1
202.316520640,0,1
202.316852320,0,0
202.816777760,1,0
202.817022880,1,1
203.316964320,0,1
203.317140160,0,0
203.817117600,1,0
203.817344160,1,1
204.317299200,0,1
204.318674560,0,0
204.817476000,1,0
204.817712480,1,1
205.317644800,0,1
205.317890560,0,0
205.817809760,1,0
205.818049920,1,1
206.317984640,0,1
206.318237280,0,0
206.818162080,1,0
206.818405920,1,1
207.318335840,0,1
207.318604160,0,0
207.818579840,1,0
207.818887520,1,1
208.318896000,0,1
208.319223200,0,0
208.819198240,1,0
208.819475040,1,1
209.319489760,0,1
209.321527520,0,0
209.819797120,1,0
209.820078880,1,1
210.320104480,0,1
210.320395200,0,0
210.820381440,1,0
210.820662400,1,1
211.320659520,0,1
211.320963040,0,0
211.820951200,1,0
211.821236640,1,1
212.321249760,0,1
212.321575040,0,0
212.821542240,1,0
212.821835840,1,1
213.321857920,0,1
213.322183040,0,0
213.822175840,1,0
213.822425920,1,1
214.322472640,0,1
214.322865920,0,0
214.822780320,1,0
214.822984800,1,1
215.323119200,0,1
215.323339680,0,0
215.823412960,1,0
215.823623520,1,1
216.323710720,0,1
216.323937600,0,0
216.824016480,1,0
216.824224320,1,1
217.324305280,0,1
217.324540640,0,0
217.824619200,1,0
217.824850400,1,1
218.324936000,0,1
218.325173120,0,0
218.825240320,1,0
218.825425920,1,1
219.325564960,0,1
219.328228640,0,0
219.825871680,1,0
219.826147680,1,1
220.326171200,0,1
220.326476960,0,0
220.826467520,1,0
220.826740000,1,1
221.326759360,0,1
221.327064000,0,0
221.827097760,1,0
221.827385920,1,1
222.327395680,0,1
222.327715200,0,0
222.827723680,1,0
222.828029280,1,1
223.328045120,0,1
223.328345920,0,0
223.828356800,1,0
223.828563840,1,1
224.328623520,0,1
224.329419680,0,0
224.828934240,1,0
224.829262880,1,1
225.329241440,0,1
225.329554720,0,0
225.829543360,1,0
225.829830880,1,1
226.329843360,0,1
226.330163040,0,0
226.830156160,1,0
226.830440480,1,1
227.330461280,0,1
227.330787840,0,0
227.830710560,1,0
227.830955200,1,1
228.330895040,0,1
228.331186240,0,0
228.831107360,1,0
228.831337920,1,1
229.331283200,0,1
229.331610400,0,0
229.831469920,1,0
229.831634880,1,1
230.331667520,0,1
230.331844640,0,0
230.831847680,1,0
230.832013440,1,1
231.332027520,0,1
231.332208000,0,0
231.832212320,1,0
231.832371840,1,1
232.332391520,0,1
232.332569760,0,0
232.832644480,1,0
232.832873600,1,1
233.332943200,0,1
233.333167040,0,0
233.833250400,1,0
233.833453920,1,1
234.333547520,0,1
234.333812480,0,0
234.833845920,1,0
234.834130080,1,1
235.334148800,0,1
235.334438880,0,0
235.834441600,1,0
235.834734400,1,1
236.334747840,0,1
236.335054080,0,0
236.835106400,1,0
236.835400480,1,1
237.335419200,0,1
237.335734720,0,0
237.835673760,1,0
237.835931520,1,1
238.335868320,0,1
238.336126080,0,0
238.836050240,1,0
238.836284960,1,1
239.336221760,0,1
239.337162400,0,0
239.836387520,1,0
239.836617120,1,1
240.336566880,0,1
240.336827200,0,0
240.836739040,1,0
240.836969440,1,1
241.336912000,0,1
241.337173760,0,0
241.837097760,1,0
241.837336480,1,1
242.337279680,0,1
242.337549120,0,0
242.837546080,1,0
242.837865440,1,1
243.337865920,0,1
243.338195040,0,0
243.838178240,1,0
243.838462720,1,1
244.338480160,0,1
244.338798080,0,0
244.838752640,1,0
244.838995200,1,1
245.339099040,0,1
245.339316480,0,0
245.839395840,1,0
245.839616640,1,1
246.339718080,0,1
246.339949440,0,0
246.840029920,1,0
246.840242560,1,1
247.340338400,0,1
247.340581920,0,0
247.840669120,1,0
247.840902400,1,1
248.340982720,0,1
248.341212000,0,0
248.841290720,1,0
248.841498560,1,1
249.341583520,0,1
249.341865280,0,0
249.841880960,1,0
249.842159840,1,1
250.342181280,0,1
250.342496000,0,0
250.842472480,1,0
250.842772000,1,1
251.342811200,0,1
251.343131680,0,0
251.843139360,1,0
251.843443360,1,1
252.343451040,0,1
252.343780800,0,0
252.843745760,1,0
252.844056480,1,1
253.344060800,0,1
253.344380640,0,0
253.844371840,1,0
253.844656000,1,1
254.344672960,0,1
254.345194720,0,0
254.844988000,1,0
254.845262080,1,1
255.345291040,0,1
255.345598080,0,0
255.845605120,1,0
255.845897280,1,1
256.345909120,0,1
256.346226240,0,0
256.846216640,1,0
256.846509440,1,1
257.346506240,0,1
257.346817440,0,0
257.846854560,1,0
257.847156000,1,1
258.347180960,0,1
258.347493920,0,0
258.847494880,1,0
258.847785760,1,1
259.347797120,0,1
259.348182240,0,0
259.848116800,1,0
259.848294240,1,1
260.348393600,0,1
260.348617920,0,0
260.848736320,1,0
260.848957600,1,1
261.349088640,0,1
261.349329760,0,0
261.849440480,1,0
261.849657600,1,1
262.349735040,0,1
262.349967840,0,0
262.850054240,1,0
262.850276160,1,1
263.350360800,0,1
263.350592640,0,0
263.850702240,1,0
263.850918560,1,1
264.351015360,0,1
264.352958720,0,0
264.851325440,1,0
264.851563680,1,1
265.351612160,0,1
265.351916960,0,0
265.851908960,1,0
265.852228480,1,1
266.352209600,0,1
266.352513280,0,0
266.852520320,1,0
266.852803680,1,1
267.352824640,0,1
267.353148960,0,0
267.853146720,1,0
267.853456640,1,1
268.353484960,0,1
268.353789920,0,0
268.853810880,1,0
268.854093280,1,1
269.354112640,0,1
269.355217600,0,0
269.854425280,1,0
269.854633440,1,1
270.354728960,0,1
270.355037280,0,0
270.855048160,1,0
270.855343360,1,1
271.355358080,0,1
271.355656000,0,0
271.855678720,1,0
271.855963520,1,1
272.355993280,0,1
272.356302080,0,0
272.856245280,1,0
272.856489440,1,1
273.356451360,0,1
273.356700320,0,0
273.856655680,1,0
273.856896960,1,1
274.356871680,0,1
274.357189920,0,0
274.857073920,1,0
274.857304960,1,1
275.357269920,0,1
275.357504960,0,0
275.857462080,1,0
275.857704320,1,1
276.357660800,0,1
276.357917920,0,0
276.857862720,1,0
276.858096480,1,1
277.358060160,0,1
277.358324480,0,0
277.858391840,1,0
277.858704160,1,1
278.358759520,0,1
278.359082880,0,0
278.859134080,1,0
278.859436160,1,1
279.359468320,0,1
279.359829920,0,0
279.859814560,1,0
279.860109600,1,1
280.360147040,0,1
280.360443520,0,0
280.860480320,1,0
280.860828320,1,1
281.360845920,0,1
281.361140000,0,0
281.861202240,1,0
281.861500320,1,1
282.361540960,0,1
282.361850400,0,0
282.861885760,1,0
282.862176800,1,1
283.362263680,0,1
283.362580800,0,0
283.862651200,1,0
283.862935520,1,1
284.363007840,0,1
284.363402880,0,0
284.863369440,1,0
284.863655360,1,1
285.363719520,0,1
285.363969120,0,0
285.864043040,1,0
285.864352000,1,1
286.364386560,0,1
286.364701280,0,0
286.864722720,1,0
286.865023040,1,1
287.365050240,0,1
287.365371520,0,0
