Time [s],Channel 1,Channel 2
0.000000000,1,1
2.979067200,0,1
2.979283840,0,0
3.482741920,1,0
3.482946880,1,1
3.982948640,0,1
3.983120160,0,0
4.483083520,1,0
4.483239360,1,1
4.983204160,0,1
4.983357120,0,0
5.483328960,1,0
5.483491200,1,1
5.983451360,0,1
5.983606560,0,0
6.483567200,1,0
6.483717920,1,1
6.983686560,0,1
6.983836000,0,0
7.483790240,1,0
7.483940960,1,1
7.983910400,0,1
7.984211200,0,0
8.484036640,1,0
8.484193760,1,1
8.984194080,0,1
8.984410080,0,0
9.484404960,1,0
9.484609760,1,1
9.984603360,0,1
9.984773760,0,0
10.484784160,1,0
10.484985440,1,1
10.984989440,0,1
10.985174880,0,0
11.485174720,1,0
11.485363680,1,1
11.985370400,0,1
11.985573600,0,0
12.485563520,1,0
12.485755840,1,1
12.985755840,0,1
12.985956000,0,0
13.485953440,1,0
13.486158720,1,1
13.986153760,0,1
13.986357440,0,0
14.486350720,1,0
14.486558080,1,1
14.986557120,0,1
14.986748960,0,0
15.486751040,1,0
15.486955840,1,1
15.986956320,0,1
15.987143200,0,0
16.487147840,1,0
16.487355360,1,1
16.987340480,0,1
16.987522880,0,0
17.487512480,1,0
17.487709120,1,1
17.987710240,0,1
17.988028480,0,0
18.487899040,1,0
18.488097600,1,1
18.988092960,0,1
18.988272800,0,0
19.488255520,1,0
19.488456800,1,1
19.988446560,0,1
19.988626560,0,0
20.488628000,1,0
20.488834080,1,1
20.988829760,0,1
20.989035200,0,0
21.489016480,1,0
21.489214880,1,1
21.989215680,0,1
21.989420800,0,0
22.489402080,1,0
22.489594400,1,1
22.989582400,0,1
22.989758400,0,0
23.489740960,1,0
23.489941600,1,1
23.989939840,0,1
23.990131520,0,0
24.490118400,1,0
24.490320000,1,1
24.990306560,0,1
24.990463520,0,0
25.490463680,1,0
25.490671360,1,1
25.990666400,0,1
25.990851840,0,0
26.490854240,1,0
26.491054720,1,1
26.991062880,0,1
26.991257440,0,0
27.491247520,1,0
27.491443840,1,1
27.991443200,0,1
27.991654560,0,0
28.491622560,1,0
28.491823840,1,1
28.991815040,0,1
28.991991680,0,0
29.491980800,1,0
29.492185280,1,1
29.992203200,0,1
29.992383200,0,0
30.492385440,1,0
30.492594240,1,1
30.992621760,0,1
30.992802400,0,0
31.492808800,1,0
31.493008320,1,1
31.993017600,0,1
31.993210560,0,0
32.493210400,1,0
32.493406080,1,1
32.993415840,0,1
32.993588000,0,0
33.493581600,1,0
33.493788320,1,1
33.993775520,0,1
33.993959040,0,0
34.493949600,1,0
34.494153600,1,1
34.994145760,0,1
34.994298080,0,0
35.494302240,1,0
35.494517120,1,1
35.994514240,0,1
35.994700960,0,0
36.494708160,1,0
36.494933120,1,1
36.994937600,0,1
36.995112800,0,0
37.495099680,1,0
37.495284960,1,1
37.995311040,0,1
37.995491520,0,0
38.495484480,1,0
38.495684320,1,1
38.995680960,0,1
38.995861120,0,0
39.495848160,1,0
39.496059520,1,1
39.996044960,0,1
39.996211520,0,0
40.496214880,1,0
40.496420640,1,1
40.996416800,0,1
40.996605440,0,0
41.496602880,1,0
41.496800800,1,1
41.996829280,0,1
41.997035840,0,0
42.497009760,1,0
42.497195520,1,1
42.997191680,0,1
42.997488160,0,0
43.497349120,1,0
43.497541600,1,1
43.997540960,0,1
43.997729920,0,0
44.497720640,1,0
44.497927040,1,1
44.997917440,0,1
44.998082400,0,0
45.498082080,1,0
45.498280480,1,1
45.998285120,0,1
45.998471520,0,0
46.498472320,1,0
46.498664000,1,1
46.998662240,0,1
46.998881120,0,0
47.498869600,1,0
47.499061440,1,1
47.999060320,0,1
47.999254240,0,0
48.499248160,1,0
48.499445760,1,1
48.999440160,0,1
48.999613600,0,0
49.499600960,1,0
49.499800800,1,1
49.999789440,0,1
49.999968320,0,0
50.499967680,1,0
50.500169920,1,1
51.000167360,0,1
51.000359680,0,0
51.500359040,1,0
51.500550080,1,1
52.000552320,0,1
52.000747040,0,0
52.500732000,1,0
52.500913280,1,1
53.000911200,0,1
53.001082720,0,0
53.501068160,1,0
53.501275040,1,1
54.001267360,0,1
54.001467840,0,0
54.501459360,1,0
54.501665280,1,1
55.001648000,0,1
55.001816640,0,0
55.501801120,1,0
55.502004480,1,1
56.001996800,0,1
56.002187520,0,0
56.502173440,1,0
56.502365120,1,1
57.002367360,0,1
57.002555520,0,0
57.502535360,1,0
57.502742400,1,1
58.002772320,0,1
58.002961920,0,0
58.502951520,1,0
58.503154400,1,1
59.003147200,0,1
59.003324320,0,0
59.503306240,1,0
59.503507520,1,1
60.003496800,0,1
60.003824000,0,0
60.503680000,1,0
60.503885920,1,1
61.003882400,0,1
61.004072800,0,0
61.504072000,1,0
61.504267360,1,1
62.004266080,0,1
62.004457120,0,0
62.504438560,1,0
62.504628320,1,1
63.004624480,0,1
63.004796960,0,0
63.504783840,1,0
63.504989120,1,1
64.004976000,0,1
64.005158560,0,0
64.505141440,1,0
64.505345120,1,1
65.005324480,0,1
65.005494080,0,0
65.505481280,1,0
65.505686080,1,1
66.005678720,0,1
66.005880000,0,0
66.505864800,1,0
66.506055040,1,1
67.006045280,0,1
67.006223040,0,0
67.506202080,1,0
67.506397120,1,1
68.006380000,0,1
68.006563520,0,0
68.506596960,1,0
68.506798880,1,1
69.006793120,0,1
69.006965920,0,0
69.506949440,1,0
69.507154080,1,1
70.007142080,0,1
70.007321760,0,0
70.507309440,1,0
70.507515680,1,1
71.007511680,0,1
71.007700320,0,0
71.507691040,1,0
71.507879840,1,1
72.007881920,0,1
72.008072800,0,0
72.508056320,1,0
72.508360480,1,1
73.008241760,0,1
73.008408320,0,0
73.508398560,1,0
73.508607360,1,1
74.008593920,0,1
74.008778080,0,0
74.508763520,1,0
74.508971040,1,1
75.008955840,0,1
75.009124480,0,0
75.509119840,1,0
75.509327840,1,1
76.009321280,0,1
76.009513600,0,0
76.509501920,1,0
76.509688960,1,1
77.009685440,0,1
77.009864800,0,0
77.509843040,1,0
77.510038880,1,1
78.010028480,0,1
78.010211200,0,0
78.510200480,1,0
78.510406880,1,1
79.010391200,0,1
79.010562880,0,0
79.510544640,1,0
79.510748800,1,1
80.010737280,0,1
80.010923520,0,0
80.510915040,1,0
80.511121120,1,1
81.011119200,0,1
81.011318240,0,0
81.511308160,1,0
81.511501280,1,1
82.011496480,0,1
82.011685600,0,0
82.511667840,1,0
82.511854560,1,1
83.011843200,0,1
83.012010400,0,0
83.511993440,1,0
83.512198720,1,1
84.012191360,0,1
84.012384480,0,0
84.512373600,1,0
84.512581280,1,1
85.012563200,0,1
85.012739040,0,0
85.512716480,1,0
85.512922560,1,1
86.012920800,0,1
86.013116960,0,0
86.513108480,1,0
86.513301600,1,1
87.013304480,0,1
87.013494080,0,0
87.513477920,1,0
87.513673920,1,1
88.013664800,0,1
88.013850240,0,0
88.513844000,1,0
88.514042880,1,1
89.014032320,0,1
89.014207040,0,0
89.514187040,1,0
89.514389440,1,1
90.014375040,0,1
90.014616800,0,0
90.514614560,1,0
90.514820480,1,1
91.014805760,0,1
91.014994720,0,0
91.514995200,1,0
91.515191360,1,1
92.015191040,0,1
92.015390400,0,0
92.515371040,1,0
92.515564160,1,1
93.015567520,0,1
93.015752320,0,0
93.515761120,1,0
93.515960480,1,1
94.015954080,0,1
94.016139200,0,0
94.516125760,1,0
94.516327840,1,1
95.016312480,0,1
95.016483200,0,0
95.516472480,1,0
95.516683680,1,1
96.016675520,0,1
96.016874880,0,0
96.516863360,1,0
96.517048640,1,1
97.017042080,0,1
97.017221120,0,0
97.517199360,1,0
97.517382400,1,1
98.017382560,0,1
98.017684960,0,0
98.517556000,1,0
98.517755040,1,1
99.017745760,0,1
99.017929440,0,0
99.517915040,1,0
99.518118080,1,1
100.018107520,0,1
100.018292960,0,0
100.518283360,1,0
100.518515040,1,1
101.018519520,0,1
101.018714080,0,0
101.518698080,1,0
101.518886560,1,1
102.018885920,0,1
102.019078400,0,0
102.519063360,1,0
102.519249600,1,1
103.019264800,0,1
103.019439040,0,0
103.519426240,1,0
103.519627200,1,1
104.019618880,0,1
104.019811680,0,0
104.519791200,1,0
104.519998400,1,1
105.019984480,0,1
105.020162560,0,0
105.520158720,1,0
105.520363200,1,1
106.020358240,0,1
106.020575680,0,0
106.520544160,1,0
106.520864160,1,1
107.020727360,0,1
107.020905600,0,0
107.520894080,1,0
107.521091680,1,1
108.021078560,0,1
108.021273440,0,0
108.521264480,1,0
108.521464640,1,1
109.021456800,0,1
109.021629440,0,0
109.521618240,1,0
109.521815200,1,1
110.021806720,0,1
110.021989760,0,0
110.521981120,1,0
110.522183520,1,1
111.022178240,0,1
111.022407040,0,0
111.522410240,1,0
111.522609280,1,1
112.022603680,0,1
112.022797440,0,0
112.522776960,1,0
112.522956800,1,1
113.022956960,0,1
113.023118880,0,0
113.523107680,1,0
113.523300160,1,1
114.023302880,0,1
114.023496160,0,0
114.523485280,1,0
114.523688800,1,1
115.023676480,0,1
115.023840640,0,0
115.523833280,1,0
115.524037440,1,1
116.024035360,0,1
116.024238560,0,0
116.524223200,1,0
116.524416000,1,1
117.024414720,0,1
117.024596320,0,0
117.524583840,1,0
117.524768640,1,1
118.024770080,0,1
118.024960160,0,0
118.524950080,1,0
118.525142720,1,1
119.025140160,0,1
119.025312960,0,0
119.525299520,1,0
119.525504640,1,1
120.025487680,0,1
120.025679680,0,0
120.525671040,1,0
120.525875680,1,1
121.025871840,0,1
121.026077280,0,0
121.526064960,1,0
121.526257120,1,1
122.026257440,0,1
122.026438880,0,0
122.526424000,1,0
122.526609600,1,1
123.026616640,0,1
123.026792000,0,0
123.526781120,1,0
123.526985600,1,1
124.026979680,0,1
124.027165120,0,0
124.527161280,1,0
124.527361920,1,1
125.027350720,0,1
125.027515200,0,0
125.527504320,1,0
125.527711040,1,1
126.027708160,0,1
126.027908800,0,0
126.527894880,1,0
126.528085760,1,1
127.028084960,0,1
127.028385280,0,0
127.528244000,1,0
127.528431840,1,1
128.028422880,0,1
128.028608960,0,0
128.528613920,1,0
128.528809120,1,1
129.028808640,0,1
129.028980320,0,0
129.528965760,1,0
129.529172160,1,1
130.029158560,0,1
130.029342560,0,0
130.529334240,1,0
130.529542080,1,1
131.029537760,0,1
131.029734560,0,0
131.529727680,1,0
131.529930400,1,1
132.029905120,0,1
132.030070080,0,0
132.530026080,1,0
132.530170880,1,1
133.030143360,0,1
133.030283840,0,0
133.530243360,1,0
133.530378240,1,1
134.030366400,0,1
134.030528800,0,0
134.530488320,1,0
134.530649920,1,1
135.030615040,0,1
135.030771840,0,0
135.530733760,1,0
135.530896320,1,1
136.030858080,0,1
136.031020640,0,0
136.530977600,1,0
136.531132480,1,1
137.031125920,0,1
137.031314880,0,0
137.531308800,1,0
137.531504640,1,1
138.031510720,0,1
138.031841120,0,0
138.531717760,1,0
138.531915040,1,1
139.031915840,0,1
139.032083040,0,0
139.532068640,1,0
139.532279200,1,1
140.032267040,0,1
140.032450080,0,0
140.532438720,1,0
140.532652000,1,1
141.032685440,0,1
141.032887680,0,0
141.532877280,1,0
141.533075360,1,1
142.033078720,0,1
142.033269760,0,0
142.533257120,1,0
142.533443840,1,1
143.033436800,0,1
143.033591040,0,0
143.533580960,1,0
143.533781280,1,1
144.033789600,0,1
144.033986080,0,0
144.533976960,1,0
144.534204960,1,1
145.034199040,0,1
145.034354400,0,0
145.534342400,1,0
145.534545440,1,1
146.034539840,0,1
146.034736960,0,0
146.534733600,1,0
146.534933440,1,1
147.034925760,0,1
147.035096160,0,0
147.535080960,1,0
147.535278080,1,1
148.035265280,0,1
148.035457760,0,0
148.535448160,1,0
148.535645760,1,1
149.035642400,0,1
149.035815680,0,0
149.535803680,1,0
149.536001440,1,1
150.035979200,0,1
150.036153600,0,0
150.536141760,1,0
150.536466720,1,1
151.036340320,0,1
151.036530080,0,0
151.536523680,1,0
151.536730240,1,1
152.036723840,0,1
152.036917600,0,0
152.536910560,1,0
152.537105280,1,1
153.037092000,0,1
153.037248800,0,0
153.537238400,1,0
153.537435680,1,1
154.037437440,0,1
154.037620960,0,0
154.537608640,1,0
154.537814080,1,1
155.037787520,0,1
155.037943680,0,0
155.537932480,1,0
155.538154400,1,1
156.038168000,0,1
156.038356640,0,0
156.538355840,1,0
156.538553280,1,1
157.038537440,0,1
157.038693280,0,0
157.538682560,1,0
157.538875040,1,1
158.038858240,0,1
158.039012800,0,0
158.539006880,1,0
158.539203840,1,1
159.039196320,0,1
159.039366400,0,0
159.539360640,1,0
159.539572960,1,1
160.039540960,0,1
160.039696480,0,0
160.539683040,1,0
160.539891200,1,1
161.039884960,0,1
161.040077600,0,0
161.540069440,1,0
161.540271840,1,1
162.040256480,0,1
162.040431200,0,0
162.540424480,1,0
162.540623200,1,1
163.040607040,0,1
163.040759360,0,0
163.540752640,1,0
163.540960640,1,1
164.040943520,0,1
164.041110880,0,0
164.541107520,1,0
164.541328160,1,1
165.041298080,0,1
165.041452160,0,0
165.541445120,1,0
165.541649280,1,1
166.041650720,0,1
166.041836640,0,0
166.541836960,1,0
166.542062400,1,1
167.042056480,0,1
167.042215520,0,0
167.542205440,1,0
167.542415200,1,1
168.042384160,0,1
168.042544000,0,0
168.542535840,1,0
168.542740320,1,1
169.042732320,0,1
169.042900480,0,0
169.542891840,1,0
169.543100960,1,1
170.043071200,0,1
170.043229440,0,0
170.543215200,1,0
170.543423360,1,1
171.043417600,0,1
171.043608160,0,0
171.543604640,1,0
171.543809120,1,1
172.043793920,0,1
172.043960000,0,0
172.543948480,1,0
172.544148320,1,1
173.044126080,0,1
173.044283200,0,0
173.544272320,1,0
173.544471360,1,1
174.044468800,0,1
174.044649440,0,0
174.544635840,1,0
174.544842240,1,1
175.044812640,0,1
175.044964160,0,0
175.544951680,1,0
175.545162240,1,1
176.045152800,0,1
176.045339040,0,0
176.545335840,1,0
176.545533600,1,1
177.045540320,0,1
177.045741600,0,0
177.545734400,1,0
177.545974720,1,1
178.045964000,0,1
178.046138560,0,0
178.546130560,1,0
178.546326880,1,1
179.046331680,0,1
179.046504160,0,0
179.546491520,1,0
179.546700160,1,1
180.046680160,0,1
180.046836640,0,0
180.546822880,1,0
180.547025600,1,1
181.047032800,0,1
181.047223680,0,0
181.547215840,1,0
181.547413600,1,1
182.047408480,0,1
182.047563040,0,0
182.547551360,1,0
182.547870080,1,1
183.047742880,0,1
183.047897120,0,0
183.547883840,1,0
183.548090240,1,1
184.048080320,0,1
184.048252320,0,0
184.548241600,1,0
184.548446080,1,1
185.048423840,0,1
185.048585440,0,0
185.548572800,1,0
185.548771200,1,1
186.048777760,0,1
186.048957280,0,0
186.548957920,1,0
186.549154400,1,1
187.049141280,0,1
187.049296320,0,0
187.549280800,1,0
187.549490080,1,1
188.049461440,0,1
188.049630880,0,0
188.549617600,1,0
188.549816320,1,1
189.049809280,0,1
189.049979680,0,0
189.549964960,1,0
189.550171360,1,1
190.050142880,0,1
190.050304800,0,0
190.550289120,1,0
190.550497280,1,1
191.050507520,0,1
191.050691680,0,0
191.550683680,1,0
191.550889440,1,1
192.050878400,0,1
192.051036480,0,0
192.551020960,1,0
192.551217920,1,1
193.051211520,0,1
193.051367360,0,0
193.551361280,1,0
193.551561920,1,1
194.051554080,0,1
194.051723360,0,0
194.551712800,1,0
194.551934720,1,1
195.051897440,0,1
195.052055360,0,0
195.552042400,1,0
195.552248640,1,1
196.052246080,0,1
196.052429280,0,0
196.552431200,1,0
196.552629440,1,1
197.052616160,0,1
197.052768800,0,0
197.552761120,1,0
197.552955200,1,1
198.052938240,0,1
198.053102400,0,0
198.553098560,1,0
198.553305920,1,1
199.053297920,0,1
199.053468800,0,0
199.553461280,1,0
199.553675520,1,1
200.053653760,0,1
200.053850720,0,0
200.553849120,1,0
200.554057440,1,1
201.054049440,0,1
201.054234560,0,0
201.554231840,1,0
201.554439360,1,1
202.054416800,0,1
202.054564800,0,0
202.554567360,1,0
202.554765920,1,1
203.054756160,0,1
203.054910880,0,0
203.554909760,1,0
203.555110880,1,1
204.055107360,0,1
204.055288960,0,0
204.555288000,1,0
204.555493120,1,1
205.055467360,0,1
205.055619200,0,0
205.555620480,1,0
205.555827360,1,1
206.055819360,0,1
206.055997920,0,0
206.556008320,1,0
206.556210080,1,1
207.056203360,0,1
207.056367680,0,0
207.556357440,1,0
207.556567680,1,1
208.056540640,0,1
208.056700640,0,0
208.556712000,1,0
208.556908800,1,1
209.056904800,0,1
209.057069600,0,0
209.557064480,1,0
209.557269440,1,1
210.057244800,0,1
210.057524640,0,0
210.557398560,1,0
210.557600160,1,1
211.057672480,0,1
211.057860320,0,0
211.557869440,1,0
211.558075040,1,1
212.058071200,0,1
212.058256640,0,0
212.558249600,1,0
212.558442240,1,1
213.058434240,0,1
213.058591680,0,0
213.558594240,1,0
213.558794080,1,1
214.058788800,0,1
214.058966720,0,0
214.558958720,1,0
214.559168000,1,1
215.059153120,0,1
215.059309440,0,0
215.559300640,1,0
215.559507040,1,1
216.059503040,0,1
216.059702240,0,0
216.559696160,1,0
216.559895680,1,1
217.059891040,0,1
217.060052160,0,0
217.560040480,1,0
217.560227040,1,1
218.060224640,0,1
218.060386880,0,0
218.560398720,1,0
218.560597280,1,1
219.060589760,0,1
219.060767840,0,0
219.560761440,1,0
219.560963360,1,1
220.060951360,0,1
220.061113120,0,0
220.561109280,1,0
220.561306240,1,1
221.061311680,0,1
221.061500480,0,0
221.561504000,1,0
221.561750880,1,1
222.061741920,0,1
222.061906080,0,0
222.561897760,1,0
222.562096800,1,1
223.062083200,0,1
223.062244160,0,0
223.562241920,1,0
223.562448640,1,1
224.062438400,0,1
224.062614240,0,0
224.562603040,1,0
224.562810240,1,1
225.062789440,0,1
225.062951680,0,0
225.562944160,1,0
225.563133280,1,1
226.063136000,0,1
226.063322240,0,0
226.563329600,1,0
226.563527680,1,1
227.063520480,0,1
227.063695840,0,0
227.563680320,1,0
227.563878080,1,1
228.063870880,0,1
228.064037280,0,0
228.564036000,1,0
228.564238880,1,1
229.064227040,0,1
229.064402240,0,0
229.564394400,1,0
229.564593280,1,1
230.064582720,0,1
230.064745440,0,0
230.564739360,1,0
230.564938720,1,1
231.064937600,0,1
231.065121920,0,0
231.565134720,1,0
231.565339200,1,1
232.065350720,0,1
232.065563040,0,0
232.565584800,1,0
232.565781600,1,1
233.065777120,0,1
233.065944000,0,0
233.565939840,1,0
233.566139520,1,1
234.066133760,0,1
234.066312800,0,0
234.566305440,1,0
234.566513920,1,1
235.066496160,0,1
235.066664000,0,0
235.566654240,1,0
235.566859680,1,1
236.066849920,0,1
236.067039200,0,0
236.567042880,1,0
236.567246880,1,1
237.067242400,0,1
237.067413600,0,0
237.567401280,1,0
237.567591200,1,1
238.067590240,0,1
238.067762080,0,0
238.567757440,1,0
238.567955040,1,1
239.067950880,0,1
239.068129280,0,0
239.568119360,1,0
239.568333280,1,1
240.068311360,0,1
240.068470240,0,0
240.568464960,1,0
240.568666400,1,1
241.068665600,0,1
241.068862240,0,0
241.568862880,1,0
241.569061760,1,1
242.069055200,0,1
242.069226880,0,0
242.569218080,1,0
242.569536160,1,1
243.069405600,0,1
243.069571040,0,0
243.569582880,1,0
243.569790080,1,1
244.069776320,0,1
244.069952800,0,0
244.569951200,1,0
244.570158400,1,1
245.070141920,0,1
245.070305600,0,0
245.570299520,1,0
245.570503360,1,1
246.070522400,0,1
246.070705440,0,0
246.570713920,1,0
246.570913120,1,1
247.070906720,0,1
247.071072000,0,0
247.571071040,1,0
247.571264960,1,1
248.071253120,0,1
248.071419040,0,0
248.571431200,1,0
248.571633760,1,1
249.071625600,0,1
249.071803040,0,0
249.571803840,1,0
249.572012800,1,1
250.072000000,0,1
250.072163200,0,0
250.572166720,1,0
250.572366560,1,1
251.072358240,0,1
251.072544320,0,0
251.572562400,1,0
251.572766880,1,1
252.072752160,0,1
252.072911040,0,0
252.572907520,1,0
252.573102080,1,1
253.073105280,0,1
253.073289760,0,0
253.573335360,1,0
253.573530880,1,1
254.073530720,0,1
254.073717920,0,0
254.573717600,1,0
254.573922560,1,1
255.073921920,0,1
255.074126560,0,0
255.574122720,1,0
255.574448480,1,1
256.074325600,0,1
256.074514080,0,0
256.574524480,1,0
256.574723040,1,1
257.074723520,0,1
257.074918400,0,0
257.574909600,1,0
257.575109120,1,1
258.075111200,0,1
258.075297120,0,0
258.575296160,1,0
258.575498080,1,1
259.075496320,0,1
259.075705600,0,0
259.575725920,1,0
259.575939840,1,1
260.075917440,0,1
260.076085120,0,0
260.576100320,1,0
260.576306400,1,1
261.076297600,0,1
261.076489440,0,0
261.576517760,1,0
261.576715680,1,1
262.076708800,0,1
262.076876960,0,0
262.576878080,1,0
262.577078560,1,1
263.077064960,0,1
263.077224960,0,0
263.577286560,1,0
263.577489280,1,1
264.077474560,0,1
264.077653440,0,0
264.577641600,1,0
264.577846080,1,1
265.077820640,0,1
265.077978880,0,0
265.577971680,1,0
265.578170560,1,1
266.078169280,0,1
266.078355200,0,0
266.578361120,1,0
266.578560160,1,1
267.078556800,0,1
267.078734880,0,0
267.578732480,1,0
267.578925280,1,1
268.078917280,0,1
268.079085760,0,0
268.579112960,1,0
268.579310880,1,1
269.079306720,0,1
269.079491520,0,0
269.579500960,1,0
269.579703200,1,1
270.079681120,0,1
270.079841760,0,0
270.579841920,1,0
270.580040160,1,1
271.080072320,0,1
271.080268000,0,0
271.580280000,1,0
271.580480480,1,1
272.080477440,0,1
272.080664800,0,0
272.580656480,1,0
272.580970880,1,1
273.080840160,0,1
273.081001440,0,0
273.581004320,1,0
273.581205760,1,1
274.081196320,0,1
274.081370080,0,0
274.581367520,1,0
274.581574720,1,1
275.081565600,0,1
275.081736480,0,0
275.581728640,1,0
275.581950880,1,1
276.081945280,0,1
276.082122080,0,0
276.582131680,1,0
276.582330080,1,1
277.082322880,0,1
277.082484480,0,0
277.582472000,1,0
277.582657760,1,1
278.082649280,0,1
278.082812960,0,0
278.582811040,1,0
278.583012640,1,1
279.083006560,0,1
279.083187040,0,0
279.583212960,1,0
279.583424960,1,1
280.083412320,0,1
280.083582240,0,0
280.583571680,1,0
280.583779200,1,1
281.083779040,0,1
281.083958240,0,0
281.583964480,1,0
281.584164160,1,1
282.084156000,0,1
282.084315040,0,0
282.584308320,1,0
282.584511520,1,1
283.084500480,0,1
283.084660480,0,0
283.584660480,1,0
283.584861600,1,1
284.084851200,0,1
284.085030560,0,0
284.585013920,1,0
284.585251200,1,1
285.085236640,0,1
285.085392640,0,0
285.585380640,1,0
