Time [s],Channel 1,Channel 2
4.344820960,0,0
4.844804640,1,0
4.844946560,1,1
5.344949440,0,1
5.345095040,0,0
5.845077440,1,0
5.845216000,1,1
6.345214240,0,1
6.345367680,0,0
6.845348480,1,0
6.845486560,1,1
7.345475680,0,1
7.345617920,0,0
7.845588160,1,0
7.845722240,1,1
8.345760320,0,1
8.345962240,0,0
8.845960640,1,0
8.849824800,1,1
9.346110880,0,1
9.346276480,0,0
9.846319520,1,0
9.846500000,1,1
10.346534240,0,1
10.346714080,0,0
10.846724640,1,0
10.846900800,1,1
11.346938080,0,1
11.347127360,0,0
11.847159520,1,0
11.847349280,1,1
12.347378400,0,1
12.347562080,0,0
12.847578080,1,0
12.847756480,1,1
13.347783840,0,1
13.347967040,0,0
13.847996320,1,0
13.848181920,1,1
14.348211680,0,1
14.348398240,0,0
14.848424800,1,0
14.848605120,1,1
15.348644800,0,1
15.348833760,0,0
15.848855360,1,0
15.849044960,1,1
16.349083360,0,1
16.349283520,0,0
16.849312640,1,0
16.849502560,1,1
17.349527520,0,1
17.349714880,0,0
17.849746240,1,0
17.849967840,1,1
18.349988960,0,1
18.350189760,0,0
18.850235520,1,0
18.850426560,1,1
19.350451200,0,1
19.350630720,0,0
19.850672960,1,0
19.850853760,1,1
20.350885920,0,1
20.351068480,0,0
20.851084160,1,0
20.851263200,1,1
21.351300160,0,1
21.351495840,0,0
21.851508800,1,0
21.851687840,1,1
22.351708160,0,1
22.351885440,0,0
22.851889280,1,0
22.852065120,1,1
23.352090720,0,1
23.352272800,0,0
23.852320640,1,0
23.852510720,1,1
24.352531840,0,1
24.352706720,0,0
24.852723520,1,0
24.852909600,1,1
25.352952320,0,1
25.353139040,0,0
25.853148320,1,0
25.853333600,1,1
26.353371680,0,1
26.353572320,0,0
26.853594240,1,0
26.853774880,1,1
27.353802880,0,1
27.353979040,0,0
27.853985920,1,0
27.854170240,1,1
28.354193280,0,1
28.354383680,0,0
28.854408960,1,0
28.854598560,1,1
29.354631680,0,1
29.354797920,0,0
29.854808000,1,0
29.854988800,1,1
30.355032480,0,1
30.355217440,0,0
30.855228160,1,0
30.855411040,1,1
31.355492800,0,1
31.355689440,0,0
31.855709920,1,0
31.855891040,1,1
32.355922240,0,1
32.356099040,0,0
32.856107520,1,0
32.856287200,1,1
33.356316160,0,1
33.356497920,0,0
33.856514240,1,0
33.856704960,1,1
34.356722880,0,1
34.356908800,0,0
34.856930560,1,0
34.857110720,1,1
35.357157280,0,1
35.357345440,0,0
35.857368480,1,0
35.857546560,1,1
36.357575680,0,1
36.357770880,0,0
36.857813760,1,0
36.858000800,1,1
37.358018720,0,1
37.358188480,0,0
37.858202560,1,0
37.858390880,1,1
38.358415520,0,1
38.358601600,0,0
38.858623680,1,0
38.858815040,1,1
39.358839360,0,1
39.359011040,0,0
39.859023040,1,0
39.859204320,1,1
40.359248640,0,1
40.359458240,0,0
40.859487360,1,0
40.859667360,1,1
41.359715840,0,1
41.359908000,0,0
41.859929760,1,0
41.860112640,1,1
42.360127360,0,1
42.360300960,0,0
42.860317120,1,0
42.860501280,1,1
43.360529120,0,1
43.360710720,0,0
43.860727360,1,0
43.860924000,1,1
44.360938400,0,1
44.361112000,0,0
44.861127680,1,0
44.861316000,1,1
45.361358080,0,1
45.361545760,0,0
45.861569280,1,0
45.861746880,1,1
46.361790400,0,1
46.361986400,0,0
46.862012160,1,0
46.862195200,1,1
47.362223200,0,1
47.362397280,0,0
47.862402560,1,0
47.862587680,1,1
48.362612640,0,1
48.362802080,0,0
48.862824000,1,0
48.863015840,1,1
49.363031360,0,1
49.363201920,0,0
49.863246240,1,0
49.863425440,1,1
50.363475360,0,1
50.363662880,0,0
50.863670880,1,0
50.863852320,1,1
51.363889440,0,1
51.364084800,0,0
51.864103680,1,0
51.864286880,1,1
52.364306880,0,1
52.364482080,0,0
52.864501920,1,0
52.864684640,1,1
53.364709760,0,1
53.364886560,0,0
53.864942720,1,0
53.865129280,1,1
54.365148960,0,1
54.365323680,0,0
54.865337920,1,0
54.865523680,1,1
55.365567520,0,1
55.365754560,0,0
55.865762560,1,0
55.865941440,1,1
56.365980160,0,1
56.366180960,0,0
56.866211040,1,0
56.866390720,1,1
57.366412960,0,1
57.366581600,0,0
57.866596000,1,0
57.866783840,1,1
58.366806720,0,1
58.366993280,0,0
58.867016800,1,0
58.867212800,1,1
59.367278880,0,1
59.367453760,0,0
59.867477280,1,0
59.867662560,1,1
60.367703680,0,1
60.367890720,0,0
60.867903200,1,0
60.868086240,1,1
61.368125440,0,1
61.368325120,0,0
61.868343520,1,0
61.868526400,1,1
62.368574880,0,1
62.368752480,0,0
62.868775200,1,0
62.868951040,1,1
63.368988640,0,1
63.369175680,0,0
63.869219200,1,0
63.869410400,1,1
64.369439840,0,1
64.369625440,0,0
64.869645920,1,0
64.869828640,1,1
65.369864800,0,1
65.370057760,0,0
65.870075680,1,0
65.870251680,1,1
66.370291520,0,1
66.370491200,0,0
66.870514880,1,0
66.870702560,1,1
67.370729440,0,1
67.370905760,0,0
67.870917760,1,0
67.871106720,1,1
68.371126720,0,1
68.371313920,0,0
68.871352960,1,0
68.871547520,1,1
69.371554720,0,1
69.371715040,0,0
69.871738560,1,0
69.871921280,1,1
70.371964960,0,1
70.372149760,0,0
70.872168800,1,0
70.872349760,1,1
71.372394400,0,1
71.372602560,0,0
71.872628000,1,0
71.872815040,1,1
72.372830400,0,1
72.373008000,0,0
72.873032160,1,0
72.873213920,1,1
73.373237600,0,1
73.373423200,0,0
73.873446400,1,0
73.873634560,1,1
74.373647360,0,1
74.373821440,0,0
74.873854560,1,0
74.874041280,1,1
75.374115520,0,1
75.374298880,0,0
75.874313760,1,0
75.874497440,1,1
76.374547520,0,1
76.374746560,0,0
76.874770560,1,0
76.874951680,1,1
77.375023200,0,1
77.375192160,0,0
77.875210240,1,0
77.875404800,1,1
78.375453920,0,1
78.375645920,0,0
78.875664000,1,0
78.875854560,1,1
79.375884640,0,1
79.376059200,0,0
79.876083840,1,0
79.876267200,1,1
80.376341600,0,1
80.376525600,0,0
80.876540160,1,0
80.876720000,1,1
81.376765760,0,1
81.376960640,0,0
81.876983520,1,0
81.877168960,1,1
82.377199520,0,1
82.377377280,0,0
82.877385600,1,0
82.877571840,1,1
83.377610240,0,1
83.377796640,0,0
83.877831520,1,0
83.878028160,1,1
84.378045760,0,1
84.378217920,0,0
84.878236640,1,0
84.878420320,1,1
85.378490560,0,1
85.378674240,0,0
85.878690720,1,0
85.878873280,1,1
86.378951680,0,1
86.379155040,0,0
86.879180960,1,0
86.879362080,1,1
87.379387200,0,1
87.379556000,0,0
87.879564640,1,0
87.879750400,1,1
88.379772640,0,1
88.379957600,0,0
88.879983040,1,0
88.880174080,1,1
89.380188160,0,1
89.380350560,0,0
89.880367840,1,0
89.880549600,1,1
90.380592640,0,1
90.380778720,0,0
90.880796480,1,0
90.880979520,1,1
91.381030240,0,1
91.381231840,0,0
91.881254240,1,0
91.881439040,1,1
92.381480320,0,1
92.381660160,0,0
92.881668640,1,0
92.881848640,1,1
93.381898880,0,1
93.382082720,0,0
93.882100800,1,0
93.882288480,1,1
94.382313760,0,1
94.382488480,0,0
94.882506560,1,0
94.882688480,1,1
95.382763680,0,1
95.382975520,0,0
95.883005600,1,0
95.883186080,1,1
96.383240480,0,1
96.383437920,0,0
96.883463360,1,0
96.883653760,1,1
97.383690880,0,1
97.383859680,0,0
97.883876960,1,0
97.884058560,1,1
98.384109760,0,1
98.384297600,0,0
98.884324320,1,0
98.884514720,1,1
99.384543040,0,1
99.384718720,0,0
99.884745280,1,0
99.884929280,1,1
100.385001760,0,1
100.385186720,0,0
100.885204000,1,0
100.885383520,1,1
101.385429600,0,1
101.385625920,0,0
101.885657600,1,0
101.885836160,1,1
102.385866880,0,1
102.386045280,0,0
102.886056960,1,0
102.886240160,1,1
103.386293440,0,1
103.386478880,0,0
103.886500320,1,0
103.886688160,1,1
104.386713600,0,1
104.386908160,0,0
104.886944000,1,0
104.887125280,1,1
105.387192640,0,1
105.387376480,0,0
105.887383840,1,0
105.887566240,1,1
106.387614080,0,1
106.387813920,0,0
106.887836160,1,0
106.888135360,1,1
107.388050080,0,1
107.388224320,0,0
107.888235200,1,0
107.888416800,1,1
108.388450880,0,1
108.388638400,0,0
108.888653920,1,0
108.888848800,1,1
109.388864320,0,1
109.389036000,0,0
109.889035520,1,0
109.889210400,1,1
110.389252640,0,1
110.389445920,0,0
110.889466080,1,0
110.889651360,1,1
111.389692000,0,1
111.389892640,0,0
111.889911360,1,0
111.890093600,1,1
112.390136000,0,1
112.390312960,0,0
112.890324960,1,0
112.890503360,1,1
113.390528320,0,1
113.390706240,0,0
113.890724160,1,0
113.890912640,1,1
114.390932640,0,1
114.391108640,0,0
114.891124800,1,0
114.891308000,1,1
115.391350880,0,1
115.391535520,0,0
115.891550240,1,0
115.891727200,1,1
116.391788160,0,1
116.391991840,0,0
116.892011680,1,0
116.892194400,1,1
117.392228800,0,1
117.392393760,0,0
117.892401280,1,0
117.892583520,1,1
118.392622560,0,1
118.392809440,0,0
118.892834560,1,0
118.893023680,1,1
119.393058720,0,1
119.393227200,0,0
119.893245440,1,0
119.893431200,1,1
120.393504480,0,1
120.393694880,0,0
120.893710560,1,0
120.893892160,1,1
121.393947200,0,1
121.394146720,0,0
121.894171840,1,0
121.894357920,1,1
122.394388160,0,1
122.394563520,0,0
122.894576640,1,0
122.894796320,1,1
123.394841440,0,1
123.395024320,0,0
123.895043680,1,0
123.895233280,1,1
124.395267520,0,1
124.395449120,0,0
124.895471200,1,0
124.895663680,1,1
125.395734080,0,1
125.395917440,0,0
125.895932160,1,0
125.896116480,1,1
126.396180960,0,1
126.396381600,0,0
126.896405600,1,0
126.896593600,1,1
127.396626720,0,1
127.396799360,0,0
127.896807520,1,0
127.896992000,1,1
128.397021440,0,1
128.397204800,0,0
128.897227200,1,0
128.897412960,1,1
129.397440640,0,1
129.397597440,0,0
129.897609760,1,0
129.897792000,1,1
130.397833600,0,1
130.398020800,0,0
130.898039360,1,0
130.898219200,1,1
131.398253920,0,1
131.398454720,0,0
131.898474880,1,0
131.898699840,1,1
132.398761280,0,1
132.398967200,0,0
132.898985600,1,0
132.899172000,1,1
133.399208160,0,1
133.399392160,0,0
133.899417760,1,0
133.899611520,1,1
134.399637120,0,1
134.399813280,0,0
134.899828480,1,0
134.900014080,1,1
135.400056960,0,1
135.400249280,0,0
135.900266560,1,0
135.900462400,1,1
136.400495680,0,1
136.400701600,0,0
136.900746880,1,0
136.900932640,1,1
137.400963520,0,1
137.401155520,0,0
137.901169600,1,0
137.901360960,1,1
138.401397280,0,1
138.401596160,0,0
138.901604640,1,0
138.901801280,1,1
139.401802720,0,1
139.401985280,0,0
139.902001920,1,0
139.902186880,1,1
140.402255520,0,1
140.402446240,0,0
140.902562400,1,0
140.902743520,1,1
141.402802400,0,1
141.402999520,0,0
141.903020960,1,0
141.903201920,1,1
142.403235040,0,1
142.403412960,0,0
142.903427200,1,0
142.903606080,1,1
143.403644800,0,1
143.403824960,0,0
143.903844800,1,0
143.904032320,1,1
144.404061760,0,1
144.404236800,0,0
144.904254400,1,0
144.904434240,1,1
145.404501600,0,1
145.404684320,0,0
145.904704160,1,0
145.904884000,1,1
146.404932160,0,1
146.405134880,0,0
146.905154560,1,0
146.905338400,1,1
147.405403840,0,1
147.405608640,0,0
147.905622400,1,0
147.905810240,1,1
148.405848960,0,1
148.406035520,0,0
148.906059840,1,0
148.906259840,1,1
149.406278240,0,1
149.406444800,0,0
149.906457440,1,0
149.906641120,1,1
150.406705600,0,1
150.406896320,0,0
150.906914560,1,0
150.907098720,1,1
151.407136640,0,1
151.407342880,0,0
151.907359360,1,0
151.907543680,1,1
152.407575840,0,1
152.407756800,0,0
152.907761600,1,0
152.907942240,1,1
153.407968480,0,1
153.408143520,0,0
153.908157600,1,0
153.908344160,1,1
154.408359040,0,1
154.408530720,0,0
154.908544480,1,0
154.908729440,1,1
155.408783680,0,1
155.408970720,0,0
155.908986080,1,0
155.909168480,1,1
156.409208960,0,1
156.409409600,0,0
156.909430080,1,0
156.909615680,1,1
157.409644800,0,1
157.409806880,0,0
157.909811680,1,0
157.909991520,1,1
158.410019520,0,1
158.410211040,0,0
158.910227200,1,0
158.910444480,1,1
159.410565120,0,1
159.410737600,0,0
159.910750080,1,0
159.910939520,1,1
160.411010080,0,1
160.411203360,0,0
160.911222560,1,0
160.911400960,1,1
161.411461760,0,1
161.411660800,0,0
161.911673440,1,0
161.911854080,1,1
162.411885600,0,1
162.412064000,0,0
162.912068800,1,0
162.912258080,1,1
163.412295520,0,1
163.412475680,0,0
163.912492000,1,0
163.912677760,1,1
164.412726240,0,1
164.412902240,0,0
164.912908480,1,0
164.913088800,1,1
165.413142080,0,1
165.413330560,0,0
165.913342880,1,0
165.913522400,1,1
166.413584480,0,1
166.413789280,0,0
166.913810560,1,0
166.913991680,1,1
167.414042080,0,1
167.414214400,0,0
167.914255200,1,0
167.914437920,1,1
168.414465120,0,1
168.414654080,0,0
168.914670240,1,0
168.914858560,1,1
169.414893760,0,1
169.415058880,0,0
169.915067040,1,0
169.915256000,1,1
170.415291200,0,1
170.415478880,0,0
170.915497920,1,0
170.915679840,1,1
171.415728320,0,1
171.415924320,0,0
171.915945600,1,0
171.916127840,1,1
172.416160800,0,1
172.416335520,0,0
172.916348320,1,0
172.916538240,1,1
173.416574080,0,1
173.416751200,0,0
173.916766080,1,0
173.916950240,1,1
174.416980000,0,1
174.417156000,0,0
174.917167360,1,0
174.917348960,1,1
175.417401280,0,1
175.417586560,0,0
175.917601600,1,0
175.917782560,1,1
176.417821920,0,1
176.418026560,0,0
176.918049760,1,0
176.918255200,1,1
177.418308640,0,1
177.418479520,0,0
177.918487520,1,0
177.918668160,1,1
178.418697280,0,1
178.418884800,0,0
178.918906720,1,0
178.919099200,1,1
179.419130720,0,1
179.419302240,0,0
179.919324800,1,0
179.919508640,1,1
180.419550400,0,1
180.419744640,0,0
180.919756640,1,0
180.919938560,1,1
181.419972480,0,1
181.420172000,0,0
181.920189440,1,0
181.920369120,1,1
182.420389920,0,1
182.420568000,0,0
182.920576160,1,0
182.920756960,1,1
183.420797760,0,1
183.420989920,0,0
183.921008640,1,0
183.921192320,1,1
184.421232960,0,1
184.421421920,0,0
184.921433280,1,0
184.921612800,1,1
185.421654720,0,1
185.421843200,0,0
185.921853120,1,0
185.922032320,1,1
186.422114720,0,1
186.422315840,0,0
186.922335520,1,0
186.922523040,1,1
187.422546080,0,1
187.422719840,0,0
187.922729440,1,0
187.922905760,1,1
188.422940800,0,1
188.423126560,0,0
188.923133280,1,0
188.923317280,1,1
189.423331680,0,1
189.423492960,0,0
189.923498560,1,0
189.923673760,1,1
190.423700960,0,1
190.423882400,0,0
190.923896800,1,0
190.924071360,1,1
191.424107680,0,1
191.424297760,0,0
191.924304640,1,0
191.924478400,1,1
192.424495840,0,1
192.424672960,0,0
192.924668960,1,0
192.924847360,1,1
193.424876640,0,1
193.425057600,0,0
193.925058240,1,0
193.925234240,1,1
194.425252160,0,1
194.425424320,0,0
194.925439040,1,0
194.925623200,1,1
195.425660160,0,1
195.425846400,0,0
195.925855360,1,0
195.926031040,1,1
196.426060480,0,1
196.426252960,0,0
196.926257600,1,0
196.926430880,1,1
197.426452480,0,1
197.426613120,0,0
197.926604960,1,0
197.926775680,1,1
198.426799840,0,1
198.426986560,0,0
198.926998720,1,0
198.927181600,1,1
199.427217120,0,1
199.427391040,0,0
199.927405120,1,0
199.927592320,1,1
200.427623520,0,1
200.427802720,0,0
200.927822720,1,0
200.927998560,1,1
201.428026240,0,1
201.428216640,0,0
201.928217920,1,0
201.928395680,1,1
202.428410880,0,1
202.428604800,0,0
202.928588960,1,0
202.928760000,1,1
203.428786240,0,1
203.428972800,0,0
203.928977440,1,0
203.929150080,1,1
204.429181440,0,1
204.429357760,0,0
204.929368640,1,0
204.929547680,1,1
205.429575680,0,1
205.429754880,0,0
205.929761120,1,0
205.929940480,1,1
206.429969760,0,1
206.430159040,0,0
206.930168160,1,0
206.930342560,1,1
207.430368640,0,1
207.430546720,0,0
207.930540800,1,0
207.930711360,1,1
208.430747520,0,1
208.430935680,0,0
208.930941440,1,0
208.931123200,1,1
209.431149760,0,1
209.431315360,0,0
209.931318240,1,0
209.931499840,1,1
210.431520960,0,1
210.431703680,0,0
210.931719840,1,0
210.931898560,1,1
211.431926880,0,1
211.432119680,0,0
211.932125280,1,0
211.932302560,1,1
212.432319360,0,1
212.432499680,0,0
212.932493280,1,0
212.932666080,1,1
213.432694240,0,1
213.432884160,0,0
213.932889120,1,0
213.933060800,1,1
214.433078080,0,1
214.433255360,0,0
214.933260640,1,0
214.933436160,1,1
215.433477280,0,1
215.433664960,0,0
215.933674240,1,0
215.933851840,1,1
216.433891040,0,1
216.434077920,0,0
216.934084960,1,0
216.934266400,1,1
217.434282560,0,1
217.434444320,0,0
217.934440000,1,0
217.934612640,1,1
218.434640480,0,1
218.434824960,0,0
218.934830720,1,0
218.935011360,1,1
219.435030080,0,1
219.435205760,0,0
219.935212320,1,0
219.935388320,1,1
220.435423360,0,1
220.435610720,0,0
220.935614400,1,0
220.935787360,1,1
221.435811200,0,1
221.435996800,0,0
221.936000320,1,0
221.936172480,1,1
222.436188640,0,1
222.436361280,0,0
222.936360480,1,0
222.936538080,1,1
223.436559840,0,1
223.436745440,0,0
223.936747680,1,0
223.936923680,1,1
224.436958080,0,1
224.437128320,0,0
224.937135200,1,0
224.937309760,1,1
225.437336160,0,1
225.437516960,0,0
225.937524960,1,0
225.937703520,1,1
226.437754080,0,1
226.437945760,0,0
226.937943680,1,0
226.938119040,1,1
227.438142080,0,1
227.438315360,0,0
227.938310720,1,0
227.938480320,1,1
228.438503680,0,1
228.438693760,0,0
228.938697600,1,0
228.938872480,1,1
229.438888640,0,1
229.439054400,0,0
229.939063360,1,0
229.939237600,1,1
230.439263680,0,1
230.439444000,0,0
230.939454080,1,0
230.939628000,1,1
231.439667040,0,1
231.439879040,0,0
231.939892480,1,0
231.940070400,1,1
232.440087840,0,1
232.440265600,0,0
232.940264000,1,0
232.940439840,1,1
233.440462080,0,1
233.440645600,0,0
233.940645920,1,0
233.940831200,1,1
234.440849440,0,1
234.441026400,0,0
234.941043040,1,0
234.941219680,1,1
235.441261280,0,1
235.441445280,0,0
235.941451200,1,0
235.941614400,1,1
236.441661760,0,1
236.441851680,0,0
236.941855040,1,0
236.942020960,1,1
237.442053600,0,1
237.442244160,0,0
237.942231520,1,0
237.942382560,1,1
238.442404480,0,1
238.442602400,0,0
238.942607520,1,0
238.942772800,1,1
239.442795040,0,1
239.442987840,0,0
239.943000640,1,0
239.943170240,1,1
240.443183680,0,1
240.443370240,0,0
240.943377760,1,0
240.943522240,1,1
241.443538880,0,1
241.443732480,0,0
241.943735520,1,0
241.943898720,1,1
242.443912000,0,1
242.444105920,0,0
242.944100480,1,0
242.944245920,1,1
243.444267680,0,1
243.444467040,0,0
243.944473280,1,0
243.944646560,1,1
244.444661440,0,1
244.444849280,0,0
244.944882720,1,0
244.945078080,1,1
245.445099840,0,1
245.445254560,0,0
245.945220160,1,0
245.945334720,1,1
246.445320160,0,1
246.445474400,0,0
246.945445760,1,0
246.945573920,1,1
247.445557440,0,1
247.445722560,0,0
247.945680640,1,0
247.945796480,1,1
248.445780960,0,1
248.445939680,0,0
248.945908800,1,0
248.946040800,1,1
249.446023680,0,1
249.446180640,0,0
249.946149600,1,0
249.946275840,1,1
250.446281760,0,1
250.446469440,0,0
250.946471200,1,0
250.946618560,1,1
251.446642400,0,1
251.446841920,0,0
251.946864000,1,0
251.947021120,1,1
252.447038560,0,1
252.447229600,0,0
252.947246400,1,0
252.947392480,1,1
253.447415840,0,1
253.447614080,0,0
253.947628960,1,0
253.947798720,1,1
254.447816320,0,1
254.448004960,0,0
254.948022880,1,0
254.948192640,1,1
255.448215200,0,1
255.448408160,0,0
255.948423520,1,0
255.948604960,1,1
256.448624800,0,1
256.448823520,0,0
256.948838240,1,0
256.949015360,1,1
257.449026080,0,1
257.449224320,0,0
257.949233120,1,0
257.949413600,1,1
258.449431360,0,1
258.449659040,0,0
258.949684320,1,0
258.949866880,1,1
259.449893760,0,1
259.450096000,0,0
259.950115360,1,0
259.950297920,1,1
260.450324000,0,1
260.450509120,0,0
260.950519680,1,0
260.950669920,1,1
261.450690880,0,1
261.450885120,0,0
261.950890240,1,0
261.951053440,1,1
262.451067840,0,1
262.451263680,0,0
262.951259200,1,0
262.951402880,1,1
263.451421280,0,1
263.451618560,0,0
263.951632160,1,0
263.951795680,1,1
264.451812640,0,1
264.452013440,0,0
264.952038080,1,0
264.952210240,1,1
265.452240320,0,1
265.452427520,0,0
265.952433600,1,0
265.952577920,1,1
266.452599200,0,1
266.452794880,0,0
266.952809120,1,0
266.952966720,1,1
267.452992160,0,1
267.453189280,0,0
267.953193280,1,0
267.953343520,1,1
268.453416640,0,1
268.453615200,0,0
268.953620160,1,0
268.953783040,1,1
269.453809920,0,1
269.453998720,0,0
269.954015520,1,0
269.954181600,1,1
270.454211360,0,1
270.454398720,0,0
270.954399200,1,0
270.954549440,1,1
271.454584960,0,1
271.454788960,0,0
271.954814080,1,0
271.954975040,1,1
272.455000480,0,1
272.455201280,0,0
272.955204960,1,0
272.955350560,1,1
273.455376320,0,1
273.455583840,0,0
273.955600480,1,0
273.955767840,1,1
274.455798560,0,1
274.455993760,0,0
274.956010560,1,0
274.956172000,1,1
275.456200800,0,1
275.456386240,0,0
275.956395680,1,0
275.956552160,1,1
276.456570400,0,1
276.456767520,0,0
276.956777760,1,0
276.956941600,1,1
277.456965600,0,1
277.457163200,0,0
277.957171520,1,0
277.957314240,1,1
278.457336160,0,1
278.457530720,0,0
278.957542560,1,0
278.957710400,1,1
279.457741440,0,1
279.457937440,0,0
279.957953280,1,0
279.958124160,1,1
280.458151040,0,1
280.458344000,0,0
280.958356320,1,0
280.958505760,1,1
281.458532960,0,1
281.458730720,0,0
281.958734400,1,0
281.958891520,1,1
282.458909920,0,1
282.459102080,0,0
282.959095360,1,0
282.959238240,1,1
283.459265280,0,1
283.459466400,0,0
283.959466240,1,0
283.959629760,1,1
284.459646080,0,1
284.459838080,0,0
284.959856480,1,0
284.960028640,1,1
285.460055040,0,1
285.460239520,0,0
285.960241920,1,0
285.960390400,1,1
286.460420800,0,1
286.460626880,0,0
286.960651360,1,0
286.960816960,1,1
287.460840640,0,1
