Time [s],Channel 1,Channel 2
0.000000000,0,0
2.234539680,1,0
2.234639680,1,1
2.734717120,0,1
2.734828480,0,0
3.234858240,1,0
3.234970720,1,1
3.735018080,0,1
3.735150880,0,0
4.235165280,1,0
4.235258720,1,1
4.735307040,0,1
4.735417920,0,0
5.235451840,1,0
5.235556320,1,1
5.735597280,0,1
5.735695680,0,0
6.235725760,1,0
6.235847200,1,1
6.735862880,0,1
6.735980480,0,0
7.236011520,1,0
7.236113440,1,1
7.736148320,0,1
7.736261280,0,0
8.236281440,1,0
8.236374400,1,1
8.736414720,0,1
8.736538080,0,0
9.236548480,1,0
9.236644640,1,1
9.736684960,0,1
9.736795520,0,0
10.236830720,1,0
10.236936640,1,1
10.736970720,0,1
10.737072960,0,0
11.237103680,1,0
11.237221920,1,1
11.737231040,0,1
11.737324160,0,0
12.237356960,1,0
12.237446880,1,1
12.737482080,0,1
12.737590720,0,0
13.237620960,1,0
13.237719040,1,1
13.737752960,0,1
13.737859680,0,0
14.237874080,1,0
14.237973440,1,1
14.738012000,0,1
14.738117920,0,0
15.238153920,1,0
15.238258880,1,1
15.738302400,0,1
15.738428000,0,0
16.238481280,1,0
16.238606560,1,1
16.738626560,0,1
16.738724480,0,0
17.238763520,1,0
17.238857280,1,1
17.738902080,0,1
17.739003520,0,0
18.239045440,1,0
18.239143360,1,1
18.739185120,0,1
18.739297440,0,0
19.239313440,1,0
19.239412640,1,1
19.739455040,0,1
19.739576640,0,0
20.239598560,1,0
20.239698240,1,1
20.739745760,0,1
20.739844160,0,0
21.239876000,1,0
21.240001440,1,1
21.740008800,0,1
21.740101120,0,0
22.240134720,1,0
22.240228800,1,1
22.740273440,0,1
22.740376800,0,0
23.240406400,1,0
23.240507360,1,1
23.740540160,0,1
23.740645920,0,0
24.240655680,1,0
24.240752320,1,1
24.740790560,0,1
24.740892320,0,0
25.240926080,1,0
25.241024800,1,1
25.741073440,0,1
25.741167200,0,0
26.241200960,1,0
26.241320480,1,1
26.741342240,0,1
26.741450080,0,0
27.241475040,1,0
27.241571200,1,1
27.741612160,0,1
27.741718400,0,0
28.241744960,1,0
28.241843840,1,1
28.741887520,0,1
28.742006880,0,0
29.242022240,1,0
29.242127040,1,1
29.742176320,0,1
29.742290400,0,0
30.242361440,1,0
30.242461440,1,1
30.742504480,0,1
30.742615040,0,0
31.242644800,1,0
31.242774240,1,1
31.742797440,0,1
31.742897280,0,0
32.242923200,1,0
32.243012000,1,1
32.743049440,0,1
32.743163520,0,0
33.243180800,1,0
33.243282080,1,1
33.743314720,0,1
33.743420800,0,0
34.243434560,1,0
34.243529440,1,1
34.743573920,0,1
34.743687840,0,0
35.243715840,1,0
35.243818880,1,1
35.743853760,0,1
35.743963680,0,0
36.243980800,1,0
36.244101760,1,1
36.744114400,0,1
36.744224800,0,0
37.244252160,1,0
37.244345280,1,1
37.744377760,0,1
37.744486880,0,0
38.244512800,1,0
38.244610080,1,1
38.744646080,0,1
38.744762560,0,0
39.244779520,1,0
39.244876800,1,1
39.744918240,0,1
39.745031520,0,0
40.245060960,1,0
40.245158080,1,1
40.745200480,0,1
40.745308800,0,0
41.245336000,1,0
41.245455040,1,1
41.745464640,0,1
41.745565440,0,0
42.245596000,1,0
42.245684800,1,1
42.745723680,0,1
42.745836320,0,0
43.245861600,1,0
43.245958720,1,1
43.745991360,0,1
43.746095040,0,0
44.246111360,1,0
44.246244320,1,1
44.746294560,0,1
44.746407360,0,0
45.246437280,1,0
45.246538400,1,1
45.746577120,0,1
45.746684480,0,0
46.246710400,1,0
46.246827520,1,1
46.746842240,0,1
46.746949440,0,0
47.246972480,1,0
47.247064480,1,1
47.747098400,0,1
47.747211360,0,0
48.247236800,1,0
48.247334080,1,1
48.747372480,0,1
48.747490560,0,0
49.247511680,1,0
49.247609600,1,1
49.747673440,0,1
49.747786560,0,0
50.247821920,1,0
50.247923200,1,1
50.747964800,0,1
50.748073280,0,0
51.248108160,1,0
51.248235360,1,1
51.748250880,0,1
51.748354240,0,0
52.248409600,1,0
52.248497760,1,1
52.748538880,0,1
52.748652960,0,0
53.248683840,1,0
53.248787040,1,1
53.748819840,0,1
53.748925920,0,0
54.248941760,1,0
54.249036960,1,1
54.749078880,0,1
54.749190720,0,0
55.249223520,1,0
55.249326400,1,1
55.749359840,0,1
55.749469760,0,0
56.249491520,1,0
56.249609600,1,1
56.749631840,0,1
56.749741120,0,0
57.249796480,1,0
57.249885280,1,1
57.749926560,0,1
57.750035840,0,0
58.250064960,1,0
58.250162880,1,1
58.750202400,0,1
58.750314080,0,0
59.250331040,1,0
59.250428320,1,1
59.750472160,0,1
59.750588160,0,0
60.250623040,1,0
60.250726400,1,1
60.750764800,0,1
60.750871200,0,0
61.250905920,1,0
61.251024640,1,1
61.751041120,0,1
61.751139040,0,0
62.251174240,1,0
62.251266080,1,1
62.751308640,0,1
62.751418080,0,0
63.251459200,1,0
63.251560160,1,1
63.751594880,0,1
63.751704000,0,0
64.251724640,1,0
64.251817120,1,1
64.751867520,0,1
64.751981280,0,0
65.252011200,1,0
65.252111360,1,1
65.752146720,0,1
65.752246880,0,0
66.252273920,1,0
66.252392160,1,1
66.752410080,0,1
66.752518880,0,0
67.252550400,1,0
67.252642240,1,1
67.752684320,0,1
67.752789920,0,0
68.252826080,1,0
68.252925920,1,1
68.752983520,0,1
68.753093920,0,0
69.253111840,1,0
69.253211840,1,1
69.753256160,0,1
69.753369760,0,0
70.253397600,1,0
70.253494880,1,1
70.753539040,0,1
70.753646240,0,0
71.253678880,1,0
71.253797440,1,1
71.753814080,0,1
71.753949280,0,0
72.253946400,1,0
72.254040160,1,1
72.754106720,0,1
72.754220640,0,0
73.254250720,1,0
73.254349600,1,1
73.754380800,0,1
73.754488480,0,0
74.254504640,1,0
74.254600320,1,1
74.754651040,0,1
74.754766080,0,0
75.254797600,1,0
75.254901920,1,1
75.754945600,0,1
75.755065600,0,0
76.255084320,1,0
76.255205280,1,1
76.755223040,0,1
76.755324800,0,0
77.255356800,1,0
77.255449760,1,1
77.755487200,0,1
77.755600800,0,0
78.255625280,1,0
78.255719680,1,1
78.755762080,0,1
78.755877440,0,0
79.255895200,1,0
79.255993440,1,1
79.756038240,0,1
79.756147680,0,0
80.256192480,1,0
80.256292960,1,1
80.756330240,0,1
80.756446400,0,0
81.256473600,1,0
81.256593600,1,1
81.756613280,0,1
81.756718240,0,0
82.256765760,1,0
82.256863200,1,1
82.756907680,0,1
82.757015040,0,0
83.257072480,1,0
83.257176640,1,1
83.757201760,0,1
83.757307520,0,0
84.257324320,1,0
84.257424320,1,1
84.757462400,0,1
84.757570880,0,0
85.257614400,1,0
85.257718720,1,1
85.757744160,0,1
85.757844000,0,0
86.257879520,1,0
86.257993120,1,1
86.758003360,0,1
86.758108000,0,0
87.258166560,1,0
87.258265600,1,1
87.758290720,0,1
87.758402880,0,0
88.258450080,1,0
88.258547680,1,1
88.758576160,0,1
88.758687520,0,0
89.258700800,1,0
89.258802080,1,1
89.758849120,0,1
89.758960000,0,0
90.258997120,1,0
90.259103200,1,1
90.759131040,0,1
90.759239200,0,0
91.259273280,1,0
91.259380480,1,1
91.759395680,0,1
91.759495200,0,0
92.259555520,1,0
92.259649120,1,1
92.759675680,0,1
92.759785920,0,0
93.259835200,1,0
93.259942240,1,1
93.759972160,0,1
93.760082240,0,0
94.260094720,1,0
94.260193920,1,1
94.760225760,0,1
94.760339520,0,0
95.260372800,1,0
95.260477440,1,1
95.760509440,0,1
95.760625600,0,0
96.260636640,1,0
96.260741280,1,1
96.760765600,0,1
96.760874240,0,0
97.260905280,1,0
97.261001920,1,1
97.761028000,0,1
97.761134720,0,0
98.261185280,1,0
98.261286560,1,1
98.761315840,0,1
98.761424640,0,0
99.261440960,1,0
99.261545760,1,1
99.761578880,0,1
99.761687680,0,0
100.261750720,1,0
100.261855520,1,1
100.761895360,0,1
100.761994560,0,0
101.262023360,1,0
101.262128960,1,1
101.762150240,0,1
101.762248480,0,0
102.262278240,1,0
102.262372640,1,1
102.762412000,0,1
102.762521440,0,0
103.262572800,1,0
103.262675520,1,1
103.762700480,0,1
103.762803520,0,0
104.262816640,1,0
104.262916000,1,1
104.762951680,0,1
104.763059520,0,0
105.263105760,1,0
105.263213440,1,1
105.763252320,0,1
105.763370400,0,0
106.263388480,1,0
106.263497760,1,1
106.763522400,0,1
106.763623520,0,0
107.263658240,1,0
107.263756160,1,1
107.763782880,0,1
107.763889280,0,0
108.263927200,1,0
108.264026880,1,1
108.764059680,0,1
108.764170400,0,0
109.264187200,1,0
109.264285920,1,1
109.764336800,0,1
109.764443360,0,0
110.264470880,1,0
110.264582560,1,1
110.764607040,0,1
110.764711840,0,0
111.264738560,1,0
111.264845280,1,1
111.764868960,0,1
111.764971040,0,0
112.265024960,1,0
112.265118720,1,1
112.765153920,0,1
112.765261920,0,0
113.265307840,1,0
113.265413760,1,1
113.765436480,0,1
113.765541440,0,0
114.265569440,1,0
114.265707520,1,1
114.765760960,0,1
114.765869920,0,0
115.265899680,1,0
115.266007840,1,1
115.766041120,0,1
115.766148160,0,0
116.266173120,1,0
116.266279680,1,1
116.766305760,0,1
116.766409120,0,0
117.266437600,1,0
117.266536320,1,1
117.766564320,0,1
117.766672160,0,0
118.266708320,1,0
118.266809760,1,1
118.766848800,0,1
118.766960000,0,0
119.266974880,1,0
119.267075360,1,1
119.767136320,0,1
119.767243200,0,0
120.267274400,1,0
120.267386400,1,1
120.767432000,0,1
120.767536000,0,0
121.267561440,1,0
121.267667840,1,1
121.767688480,0,1
121.767789120,0,0
122.267817760,1,0
122.267913440,1,1
122.767958560,0,1
122.768076160,0,0
123.268108960,1,0
123.268217120,1,1
123.768243680,0,1
123.768353120,0,0
124.268366080,1,0
124.268465120,1,1
124.768525440,0,1
124.768640000,0,0
125.268660320,1,0
125.268764640,1,1
125.768801600,0,1
125.768900800,0,0
126.268927680,1,0
126.269033440,1,1
126.769056640,0,1
126.769167520,0,0
127.269195840,1,0
127.269311360,1,1
127.769323040,0,1
127.769430240,0,0
128.269465440,1,0
128.269626240,1,1
128.769640160,0,1
128.769751040,0,0
129.269767200,1,0
129.269895200,1,1
129.769905760,0,1
129.770017760,0,0
130.270044960,1,0
130.270156000,1,1
130.770188160,0,1
130.770293600,0,0
131.270318560,1,0
131.270447200,1,1
131.770448480,0,1
131.770547680,0,0
132.270581280,1,0
132.270696160,1,1
132.770725760,0,1
132.770837600,0,0
133.270862880,1,0
133.270984160,1,1
133.770991360,0,1
133.771100160,0,0
134.271126080,1,0
134.271248960,1,1
134.771280640,0,1
134.771394720,0,0
135.271420640,1,0
135.271543360,1,1
135.771556960,0,1
135.771671200,0,0
136.271687680,1,0
136.271813760,1,1
136.771824960,0,1
136.771937120,0,0
137.271961760,1,0
137.272077280,1,1
137.772088000,0,1
137.772197280,0,0
138.272222720,1,0
138.272341440,1,1
138.772364640,0,1
138.772465600,0,0
139.272499040,1,0
139.272620480,1,1
139.772651040,0,1
139.772762240,0,0
140.272795520,1,0
140.272910240,1,1
140.772936160,0,1
140.773044160,0,0
141.273068000,1,0
141.273196480,1,1
141.773200000,0,1
141.773298080,0,0
142.273328320,1,0
142.273472640,1,1
142.773520160,0,1
142.773631360,0,0
143.273651360,1,0
143.273779840,1,1
143.773782720,0,1
143.773872160,0,0
144.273905120,1,0
144.274025920,1,1
144.774060640,0,1
144.774170240,0,0
145.274207680,1,0
145.274321440,1,1
145.774347840,0,1
145.774459840,0,0
146.274485280,1,0
146.274612800,1,1
146.774632160,0,1
146.774737600,0,0
147.274763520,1,0
147.274879200,1,1
147.774889600,0,1
147.774997600,0,0
148.275026400,1,0
148.275148320,1,1
148.775167520,0,1
148.775268960,0,0
149.275299840,1,0
149.275424960,1,1
149.775442400,0,1
149.775552480,0,0
150.275582400,1,0
150.275694080,1,1
150.775704640,0,1
150.775793120,0,0
151.275791840,1,0
151.275900480,1,1
151.775881920,0,1
151.775964960,0,0
152.275967680,1,0
152.276064960,1,1
152.776056160,0,1
152.776144640,0,0
153.276146880,1,0
153.276250080,1,1
153.776232960,0,1
153.776310240,0,0
154.276311840,1,0
154.276415840,1,1
154.776405920,0,1
154.776501920,0,0
155.276498400,1,0
155.276595200,1,1
155.776631680,0,1
155.776740000,0,0
156.276760960,1,0
156.276890720,1,1
156.776900640,0,1
156.777013440,0,0
157.277036160,1,0
157.277148640,1,1
157.777158240,0,1
157.777264320,0,0
158.277302720,1,0
158.277424480,1,1
158.777439200,0,1
158.777536480,0,0
159.277570400,1,0
159.277695040,1,1
159.777711520,0,1
159.777820960,0,0
160.277860320,1,0
160.277966400,1,1
160.778019200,0,1
160.778123840,0,0
161.278151840,1,0
161.278279200,1,1
161.778284160,0,1
161.778372640,0,0
162.278413920,1,0
162.278524160,1,1
162.778543680,0,1
162.778653600,0,0
163.278692160,1,0
163.278816160,1,1
163.778826720,0,1
163.778918720,0,0
164.278955040,1,0
164.279075040,1,1
164.779094400,0,1
164.779207040,0,0
165.279235840,1,0
165.279354080,1,1
165.779385920,0,1
165.779492960,0,0
166.279525600,1,0
166.279649600,1,1
166.779658720,0,1
166.779762080,0,0
167.279791200,1,0
167.279902880,1,1
167.779937280,0,1
167.780044320,0,0
168.280079360,1,0
168.280198080,1,1
168.780221920,0,1
168.780324800,0,0
169.280373120,1,0
169.280500480,1,1
169.780516160,0,1
169.780624320,0,0
170.280657120,1,0
170.280768800,1,1
170.780809440,0,1
170.780914720,0,0
171.280968320,1,0
171.281098400,1,1
171.781100480,0,1
171.781195840,0,0
172.281241760,1,0
172.281354560,1,1
172.781370880,0,1
172.781477600,0,0
173.281525280,1,0
173.281648320,1,1
173.781655520,0,1
173.781750400,0,0
174.281786400,1,0
174.281905920,1,1
174.781948640,0,1
174.782059200,0,0
175.282093120,1,0
175.282212000,1,1
175.782238400,0,1
175.782348000,0,0
176.282385920,1,0
176.282509440,1,1
176.782525440,0,1
176.782636800,0,0
177.282661120,1,0
177.282781920,1,1
177.782791360,0,1
177.782899680,0,0
178.282930720,1,0
178.283053760,1,1
178.783074080,0,1
178.783170400,0,0
179.283204640,1,0
179.283326400,1,1
179.783345760,0,1
179.783459040,0,0
180.283500480,1,0
180.283615680,1,1
180.783652320,0,1
180.783758880,0,0
181.283787360,1,0
181.283914720,1,1
181.783920800,0,1
181.784012640,0,0
182.284059040,1,0
182.284180160,1,1
182.784202880,0,1
182.784313760,0,0
183.284373600,1,0
183.284502240,1,1
183.784514080,0,1
183.784608480,0,0
184.284662880,1,0
184.284784960,1,1
184.784809120,0,1
184.784922240,0,0
185.284965920,1,0
185.285084480,1,1
185.785103360,0,1
185.785195840,0,0
186.285243200,1,0
186.285371360,1,1
186.785382240,0,1
186.785492960,0,0
187.285518720,1,0
187.285643680,1,1
187.785661280,0,1
187.785768800,0,0
188.285809600,1,0
188.285932960,1,1
188.785945920,0,1
188.786044800,0,0
189.286109760,1,0
189.286233760,1,1
189.786255360,0,1
189.786366080,0,0
190.286402560,1,0
190.286515520,1,1
190.786568000,0,1
190.786674720,0,0
191.286713120,1,0
191.286836960,1,1
191.786843520,0,1
191.786933600,0,0
192.286978880,1,0
192.287098720,1,1
192.787126400,0,1
192.787234560,0,0
193.287270560,1,0
193.287392640,1,1
193.787406720,0,1
193.787494560,0,0
194.287532800,1,0
194.287652640,1,1
194.787669760,0,1
194.787782080,0,0
195.287838080,1,0
195.287955520,1,1
195.787985440,0,1
195.788098400,0,0
196.288136800,1,0
196.288260960,1,1
196.788268480,0,1
196.788375680,0,0
197.288394720,1,0
197.288514720,1,1
197.788526240,0,1
197.788632320,0,0
198.288662240,1,0
198.288782560,1,1
198.788798080,0,1
198.788896480,0,0
199.288926240,1,0
199.289043840,1,1
199.789076800,0,1
199.789209280,0,0
200.289281280,1,0
200.289395040,1,1
200.789420160,0,1
200.789522400,0,0
201.289551040,1,0
201.289677440,1,1
201.789684480,0,1
201.789776960,0,0
202.289808480,1,0
202.289932960,1,1
202.789946240,0,1
202.790055680,0,0
203.290084000,1,0
203.290206240,1,1
203.790216320,0,1
203.790308640,0,0
204.290351360,1,0
204.290469760,1,1
204.790508640,0,1
204.790614720,0,0
205.290646080,1,0
205.290756960,1,1
205.790780640,0,1
205.790874400,0,0
206.290911040,1,0
206.291039200,1,1
206.791044000,0,1
206.791146720,0,0
207.291176160,1,0
207.291299840,1,1
207.791306240,0,1
207.791414240,0,0
208.291470880,1,0
208.291591520,1,1
208.791600480,0,1
208.791698400,0,0
209.291752640,1,0
209.291872000,1,1
209.791888640,0,1
209.792004320,0,0
210.292033760,1,0
210.292145440,1,1
210.792170400,0,1
210.792275680,0,0
211.292316160,1,0
211.292437600,1,1
211.792441120,0,1
211.792533920,0,0
212.292569760,1,0
212.292690720,1,1
212.792705760,0,1
212.792822400,0,0
213.292880960,1,0
213.293002080,1,1
213.793011840,0,1
213.793115360,0,0
214.293168960,1,0
214.293287360,1,1
214.793309120,0,1
214.793424320,0,0
215.293461600,1,0
215.293577120,1,1
215.793598560,0,1
215.793704480,0,0
216.293743200,1,0
216.293869760,1,1
216.793876160,0,1
216.793985440,0,0
217.294015520,1,0
217.294134880,1,1
217.794151200,0,1
217.794251840,0,0
218.294291040,1,0
218.294414240,1,1
218.794426880,0,1
218.794529440,0,0
219.294571200,1,0
219.294691520,1,1
219.794714400,0,1
219.794821120,0,0
220.294865600,1,0
220.294972320,1,1
220.795009440,0,1
220.795115840,0,0
221.295176640,1,0
221.295301440,1,1
221.795308000,0,1
221.795400480,0,0
222.295434400,1,0
222.295558720,1,1
222.795576160,0,1
222.795685760,0,0
223.295720000,1,0
223.295841760,1,1
223.795856800,0,1
223.795947200,0,0
224.295989440,1,0
224.296110880,1,1
224.796130880,0,1
224.796237600,0,0
225.296285760,1,0
225.296398400,1,1
225.796433120,0,1
225.796537920,0,0
226.296580320,1,0
226.296710400,1,1
226.796718720,0,1
226.796816160,0,0
227.296849440,1,0
227.296970720,1,1
227.796991840,0,1
227.797118560,0,0
228.297188320,1,0
228.297312160,1,1
228.797330400,0,1
228.797431360,0,0
229.297481440,1,0
229.297598720,1,1
229.797618720,0,1
229.797720480,0,0
230.297756640,1,0
230.297861120,1,1
230.797898400,0,1
230.798003200,0,0
231.298035840,1,0
231.298163520,1,1
231.798177120,0,1
231.798275360,0,0
232.298321600,1,0
232.298441600,1,1
232.798455520,0,1
232.798558560,0,0
233.298603520,1,0
233.298721920,1,1
233.798743840,0,1
233.798830880,0,0
234.298866080,1,0
234.298986720,1,1
234.799010560,0,1
234.799116960,0,0
235.299153920,1,0
235.299259040,1,1
235.799312640,0,1
235.799407200,0,0
236.299448480,1,0
236.299579680,1,1
236.799604960,0,1
236.799714880,0,0
237.299741120,1,0
237.299863360,1,1
237.799904480,0,1
237.800007680,0,0
238.300042240,1,0
238.300158720,1,1
238.800196320,0,1
238.800293920,0,0
239.300327200,1,0
239.300448800,1,1
239.800470080,0,1
239.800577920,0,0
240.300615360,1,0
240.300722400,1,1
240.800780160,0,1
240.800885760,0,0
241.300920320,1,0
241.301048960,1,1
241.801074080,0,1
241.801161440,0,0
242.301195680,1,0
242.301316800,1,1
242.801345920,0,1
242.801456160,0,0
243.301492480,1,0
243.301615200,1,1
243.801636640,0,1
243.801729760,0,0
244.301762560,1,0
244.301887680,1,1
244.801930240,0,1
244.802038560,0,0
245.302074720,1,0
245.302186400,1,1
245.802213600,0,1
245.802308800,0,0
246.302340320,1,0
246.302468640,1,1
246.802475520,0,1
246.802577280,0,0
247.302613120,1,0
247.302733440,1,1
247.802763360,0,1
247.802866400,0,0
248.302903840,1,0
248.303023360,1,1
248.803047360,0,1
248.803146400,0,0
249.303182880,1,0
249.303309280,1,1
249.803327680,0,1
249.803436320,0,0
250.303472640,1,0
250.303580000,1,1
250.803638240,0,1
250.803745120,0,0
251.303777760,1,0
251.303903040,1,1
251.803910400,0,1
251.804003040,0,0
252.304033760,1,0
252.304151520,1,1
252.804179360,0,1
252.804286880,0,0
253.304321760,1,0
253.304440320,1,1
253.804473280,0,1
253.804568480,0,0
254.304595680,1,0
254.304719680,1,1
254.804737280,0,1
254.804844000,0,0
255.304893280,1,0
255.305025600,1,1
255.805122240,0,1
255.805226400,0,0
256.305261120,1,0
256.305388320,1,1
256.805396800,0,1
256.805500960,0,0
257.305529760,1,0
257.305650400,1,1
257.805675840,0,1
257.805778080,0,0
258.305816160,1,0
258.305936160,1,1
258.805960320,0,1
258.806064160,0,0
259.306097440,1,0
259.306217440,1,1
259.806235680,0,1
259.806342880,0,0
260.306382720,1,0
260.306490720,1,1
260.806545600,0,1
260.806647840,0,0
261.306691680,1,0
261.306819200,1,1
261.806844640,0,1
261.806937920,0,0
262.306972160,1,0
262.307095360,1,1
262.807120960,0,1
262.807228320,0,0
263.307263840,1,0
263.307384800,1,1
263.807399680,0,1
263.807493600,0,0
264.307527040,1,0
264.307649760,1,1
264.807668960,0,1
264.807779840,0,0
265.307815200,1,0
265.307923680,1,1
265.807961440,0,1
265.808061600,0,0
266.308098240,1,0
266.308223520,1,1
266.808239200,0,1
266.808348960,0,0
267.308388960,1,0
267.308512320,1,1
267.808534240,0,1
267.808640800,0,0
268.308673760,1,0
268.308797920,1,1
268.808815360,0,1
268.808913760,0,0
269.308953120,1,0
269.309079360,1,1
269.809100800,0,1
269.809213440,0,0
270.309245120,1,0
270.309352480,1,1
270.809391840,0,1
270.809503680,0,0
271.309536800,1,0
271.309663360,1,1
271.809689440,0,1
271.809794400,0,0
272.309827840,1,0
272.309947520,1,1
272.810226720,0,1
272.810338560,0,0
273.310352960,1,0
273.310455200,1,1
273.810446560,0,1
273.810525920,0,0
274.310531040,1,0
274.310633440,1,1
274.810627200,0,1
274.810717760,0,0
275.310721760,1,0
275.310804640,1,1
275.810814240,0,1
275.810893920,0,0
276.310896160,1,0
276.311004160,1,1
276.810987360,0,1
276.811078720,0,0
277.311077120,1,0
277.311180000,1,1
277.811169920,0,1
277.811253120,0,0
278.311282080,1,0
278.311399680,1,1
278.811422720,0,1
278.811521120,0,0
279.311549920,1,0
279.311672640,1,1
279.811706400,0,1
279.811815360,0,0
280.311846560,1,0
280.311948800,1,1
280.811999840,0,1
280.812101600,0,0
281.312132800,1,0
281.312254720,1,1
281.812266720,0,1
281.812355840,0,0
282.312392320,1,0
282.312511360,1,1
282.812545760,0,1
282.812652160,0,0
283.312714240,1,0
283.312833120,1,1
283.812861440,0,1
283.812959520,0,0
284.313013600,1,0
284.313132960,1,1
284.813155360,0,1
284.813263840,0,0
